# GHz S RI R 50 
!freq	ReS11	ImS11	
500.0	0.03849082714	-0.03364124782	
500.625	0.07619304294	0.03819893323	
501.25	-0.0188188033	-0.1096595844	
501.875	-0.1784501698	-0.1086354258	
502.5	-0.1693441576	-0.03882081466	
503.125	0.0001579638215	-5.521235423e-05	
503.75	0.1429456502	0.113802316	
504.375	0.05767039439	-0.159193963	
505.0	-0.1136864708	-0.02664459915	
505.625	0.05011889837	0.07110033169	
506.25	0.1356503134	-0.1231482395	
506.875	-0.4685798156	-0.267963706	
507.5	-0.6524243082	0.1521526553	
508.125	-0.5680124709	0.3961397794	
508.75	-0.6108367467	0.8127104876	
509.375	-0.3399820131	0.5211634242	
510.0	0.1377850585	0.1199644373	
510.625	0.03104910014	-0.05595991354	
511.25	-0.04991046535	0.03001652705	
511.875	0.01953143611	0.02661024736	
512.5	-0.003493543188	-0.01275316437	
513.125	0.01903397336	0.03506638002	
513.75	0.007819325351	-0.02014480004	
514.375	-0.08241755759	-0.07255563792	
515.0	-0.299776538	0.1969858142	
515.625	-0.00456132136	0.2093325403	
516.25	0.2210156797	-0.02492841745	
516.875	-0.01321807152	-0.190841226	
517.5	-0.1456683485	-0.1218696806	
518.125	-0.08050878928	0.0505827206	
518.75	0.06983033998	0.03942436844	
519.375	-0.05441440143	0.01216515656	
520.0	-0.04161977639	0.1017492644	
520.625	0.1115394642	0.1047468803	
521.25	0.3291947516	-0.1878151765	
521.875	0.1018259214	-0.5314873721	
522.5	-0.4148767824	0.07937637598	
523.125	-0.07546864011	0.4102103652	
523.75	0.2339375437	0.3926129548	
524.375	0.5572388941	0.131744262	
525.0	0.5288583453	-0.4648375067	
525.625	-0.1835252973	-0.2212223988	
526.25	-0.1531251798	0.0973294416	
526.875	0.1087761944	0.1226647818	
527.5	0.1077663163	-0.0977877666	
528.125	-0.08635407755	-0.1177582549	
528.75	-0.05212006179	0.07088068678	
529.375	0.05365206648	-0.02923564336	
530.0	-0.06871169835	-0.1243065408	
530.625	-0.1351043945	0.003025485045	
531.25	0.04312077417	0.1784894975	
531.875	0.1475283281	-0.1568520487	
532.5	-0.09383427034	-0.216570169	
533.125	-0.2321227425	0.007855707607	
533.75	-0.009956000195	0.1146447822	
534.375	0.1053990887	0.01678222455	
535.0	-0.02501393101	-0.03050678986	
535.625	-0.1074437401	0.01438108106	
536.25	0.01674365142	0.05042540046	
536.875	-0.03671713442	-0.053119741	
537.5	-0.2000487063	-0.08086234809	
538.125	-0.09765150762	0.2303993836	
538.75	0.1904182137	0.1015183453	
539.375	0.1967463039	-0.2465977853	
540.0	-0.09987547636	-0.4320274287	
540.625	-0.1545004472	-0.306262392	
541.25	-0.3805019671	0.002137587746	
541.875	-0.4442226372	0.1298424412	
542.5	-0.186023945	0.280946012	
543.125	0.2615971154	0.1481143804	
543.75	0.1017567788	-0.285033425	
544.375	-0.2318598383	-0.03029496652	
545.0	0.02076702118	0.2658469307	
545.625	0.3904219372	0.1738805165	
546.25	0.3835259963	-0.1826984236	
546.875	0.009422081411	-0.2425391213	
547.5	-0.3019853696	0.1416588705	
548.125	-0.08896802028	0.4505190855	
548.75	0.3139078583	0.1324326341	
549.375	0.09597396357	-0.3252889675	
550.0	-0.4836242098	-0.1324212032	
550.625	-0.356485826	0.3263151441	
551.25	0.2682446807	0.2190943254	
551.875	0.101397286	-0.3184051835	
552.5	-0.2673349525	-0.08416284809	
553.125	-0.07400813794	0.2127785116	
553.75	-0.05853295814	-0.08511291244	
554.375	-0.2445518785	0.05836045738	
555.0	-0.01189609478	0.195336971	
555.625	0.2629308029	-0.03298076498	
556.25	0.01740762497	-0.3668658553	
556.875	-0.3197358408	-0.10587738	
557.5	-0.0912956549	0.1636546156	
558.125	0.1972756571	0.2230980386	
558.75	0.3728178025	0.1115235621	
559.375	0.3028706434	-0.1676091752	
560.0	-0.04997247688	-0.2886191155	
560.625	-0.2540310517	-0.2047012018	
561.25	-0.2827513639	0.1419469895	
561.875	0.07663980207	0.2853393137	
562.5	0.2779773524	-0.2884055432	
563.125	0.2176305506	-0.3857061217	
563.75	-0.06497115005	-0.3557650439	
564.375	-0.2653522524	0.2201661383	
565.0	0.0212669502	0.4226811972	
565.625	0.3207092572	0.09419809491	
566.25	0.1668120312	-0.2157616864	
566.875	-0.03323317219	-0.4551488094	
567.5	-0.2485179081	-0.4421898796	
568.125	-0.3380853915	-0.1818986981	
568.75	-0.1583827378	0.2651479541	
569.375	0.2880393762	0.3382313903	
570.0	0.4174568388	-0.03682715528	
570.625	-0.03665144987	-0.3417785262	
571.25	-0.5021000894	0.006143965247	
571.875	0.1629546461	0.526137635	
572.5	0.4193922765	-0.1166075378	
573.125	-0.3959822735	-0.1705585605	
573.75	-0.3985529542	0.2700522156	
574.375	0.3765382027	0.06247547042	
575.0	0.384422997	0.02879237988	
575.625	-0.000158757766	-0.5122099776	
576.25	-0.2948635907	-0.3884786795	
576.875	-0.3547359015	-0.05323234206	
577.5	-0.1048097088	0.3261641349	
578.125	0.3179101852	0.2682777675	
578.75	0.427058963	0.004814260498	
579.375	-0.1736990268	-0.3232017628	
580.0	-0.4525980417	0.01349882777	
580.625	0.127743422	0.5265198159	
581.25	0.2963465607	0.3908476557	
581.875	0.3730330978	0.1573086974	
582.5	0.2009988271	-0.3677311297	
583.125	-0.3858657554	-0.2189928267	
583.75	-0.115012671	0.3811043753	
584.375	0.4820499192	0.1358573845	
585.0	0.4705541338	-0.3064913183	
585.625	0.4346055337	-0.1376511871	
586.25	-0.08984637934	-0.3727524185	
586.875	-0.4820933254	-0.1238294286	
587.5	-0.4486436247	0.09594380316	
588.125	-0.04344997686	0.2678803451	
588.75	0.4401472796	-0.06662674847	
589.375	0.1258276604	-0.6258541397	
590.0	-0.419319947	-0.3294014901	
590.625	-0.2568240637	0.2906896894	
591.25	0.4114700284	0.2641220988	
591.875	0.3834514925	-0.3040797324	
592.5	-0.1769088684	-0.2083960404	
593.125	-0.1098544615	0.3963562916	
593.75	0.5121698935	0.2748974981	
594.375	0.3265129964	-0.3271701389	
595.0	-0.3231053057	-0.1766807234	
595.625	-0.3210710313	0.3969906416	
596.25	0.01529927165	0.4905925168	
596.875	0.198980398	-0.0949178226	
597.5	-0.3748347941	-0.03935331396	
598.125	-0.5599548321	-0.09505203381	
598.75	-0.4855247802	-0.05531657576	
599.375	0.04629522172	0.3315522303	
600.0	0.4128234912	0.116096951	
600.625	0.4839374762	0.1503741967	
601.25	0.3193462569	-0.2601247933	
601.875	-0.217911638	-0.2723361061	
602.5	-0.167131339	0.4626372817	
603.125	-0.1873399953	0.5262395804	
603.75	0.3347589003	0.3688251291	
604.375	0.3635336914	-0.287096301	
605.0	-0.2063342419	-0.4863872495	
605.625	-0.499112444	-0.1313548815	
606.25	-0.3352179715	0.2694308174	
606.875	0.09993565833	0.4902173231	
607.5	0.4895354684	0.3475912045	
608.125	0.5373105935	0.06724012653	
608.75	0.3338116422	-0.3206859487	
609.375	-0.2435628373	-0.5341883	
610.0	-0.6753125598	-0.08662291861	
610.625	-0.2912983816	0.5038128015	
611.25	0.3912602509	0.213421079	
611.875	0.3090491553	-0.4808318983	
612.5	-0.3645679814	-0.5466103107	
613.125	-0.5914121778	0.1641743622	
613.75	-0.0446580177	0.6220444639	
614.375	0.4999822296	0.4587722218	
615.0	0.5805477026	-0.1642943292	
615.625	-0.1153932837	-0.4857069813	
616.25	-0.6147460316	-0.005124697435	
616.875	-0.223538436	0.5687227458	
617.5	0.4249169626	0.2365283481	
618.125	0.3476854162	-0.4277483463	
618.75	-0.4376772888	-0.5370060786	
619.375	-0.4157763044	-0.496135645	
620.0	-0.3838762392	0.05913676504	
620.625	0.06625158154	0.4139704378	
621.25	0.3951627638	0.460675363	
621.875	0.5670282033	-0.01618789878	
622.5	0.2014596344	-0.4162450521	
623.125	-0.4317920749	-0.2606274484	
623.75	-0.468758179	0.250210575	
624.375	0.07019455825	0.4121188258	
625.0	0.3308620594	-0.04683078315	
625.625	0.2203934189	-0.347650131	
626.25	-0.09367476391	-0.4054222513	
626.875	-0.3598202832	-0.1252875049	
627.5	-0.305938179	0.3012945208	
628.125	-0.1566303952	0.4572104052	
628.75	0.1937340333	0.3117627404	
629.375	0.1692428851	-0.05637891982	
630.0	-0.1278138016	-0.3483787473	
630.625	-0.4156256199	-0.2777406868	
631.25	-0.4366238697	0.002340714293	
631.875	-0.1471572648	0.2850569591	
632.5	0.3085277345	0.2641542213	
633.125	0.4222959986	-0.123350945	
633.75	0.04183917714	-0.2807843406	
634.375	-0.2198076024	0.09834989095	
635.0	0.0424988246	0.4505627141	
635.625	0.3851077873	0.3396868387	
636.25	0.4248824226	-0.08889759439	
636.875	0.1514631293	-0.4283395757	
637.5	-0.1369068775	-0.5220907809	
638.125	-0.3061877396	-0.2860316421	
638.75	-0.1908893311	0.1464589881	
639.375	0.2371775196	0.4028657509	
640.0	0.564029048	0.2214922246	
640.625	0.4440717043	-0.1921842964	
641.25	-0.1092575683	-0.4029360675	
641.875	-0.5966510493	-0.2483503973	
642.5	-0.7149935649	0.1522082284	
643.125	-0.2269296357	0.3987087818	
643.75	0.3500583116	0.06305234883	
644.375	0.3401474541	-0.5602237205	
645.0	-0.1654351421	-0.6661858568	
645.625	-0.5843149167	-0.1291521103	
646.25	-0.4552622949	0.56884754	
646.875	0.09263725352	0.7994186393	
647.5	0.3302658444	0.4584625992	
648.125	0.3608922443	-0.2588899919	
648.75	-0.2131841171	-0.7733248321	
649.375	-0.8305709766	-0.3132335326	
650.0	-0.4578574561	0.4761818818	
650.625	0.4407178285	0.6354092844	
651.25	1.034159914	0.243011294	
651.875	1.003961515	-0.2870129292	
652.5	0.3418435101	-0.5814667142	
653.125	-0.4404233331	-0.2611160953	
653.75	-0.415060651	0.6298935252	
654.375	0.5584276612	0.5892664442	
655.0	0.5173699446	-0.5115607953	
655.625	-0.585933039	-0.418591696	
656.25	-0.322292973	0.7261822911	
656.875	0.6392534073	0.4509985016	
657.5	0.5274007782	-0.3452628214	
658.125	-0.06036035723	-0.6419221938	
658.75	-0.4437123899	-0.6255829495	
659.375	-0.6571378214	-0.3623288569	
660.0	-0.6365543791	0.1061713373	
660.625	-0.5108838413	0.5963714222	
661.25	0.07987805843	0.8990941976	
661.875	0.5495280977	0.4276076158	
662.5	0.2253900826	-0.2440660559	
663.125	-0.5043966503	-0.2005184049	
663.75	-0.7591984736	0.249508628	
664.375	-0.4676771988	0.5192013693	
665.0	0.1041873538	0.4588162357	
665.625	0.587723535	0.1320179155	
666.25	0.6029025443	-0.3469549606	
666.875	0.1720088925	-0.4810174193	
667.5	-0.3408006298	-0.05073581404	
668.125	-0.1916658262	0.4839963175	
668.75	0.1772763666	0.5520320217	
669.375	0.4613744518	0.1067263223	
670.0	0.2869708463	-0.4330498542	
670.625	-0.004769405837	-0.6788085787	
671.25	-0.307283987	-0.5472903601	
671.875	-0.3577310377	-0.07896249863	
672.5	0.08949200141	0.3838858057	
673.125	0.6201382594	0.2254317599	
673.75	0.5558722495	-0.3466942255	
674.375	-0.02489744921	-0.5281793707	
675.0	-0.5826299913	-0.1400530644	
675.625	-0.574608896	0.4333957359	
676.25	-0.09031994406	0.6149408297	
676.875	0.3930118273	0.2305962199	
677.5	0.3408477448	-0.4151402826	
678.125	-0.0785770618	-0.6818870919	
678.75	-0.5090521999	-0.5214764204	
679.375	-0.826343166	-0.01438157195	
680.0	-0.9747612943	-0.1222929287	
680.625	-0.8795736114	-0.1223690167	
681.25	-0.59002848	0.04070542055	
681.875	-0.2298232056	0.498379207	
682.5	0.3250773965	0.7210789435	
683.125	0.8684411708	0.05492894839	
683.75	0.2126601052	-0.8267164381	
684.375	-0.8913929251	-0.2749886947	
685.0	-0.3322483311	1.076993907	
685.625	0.8669063047	0.6802307775	
686.25	0.7892903069	-0.2831902793	
686.875	-0.02357364577	-0.6126217811	
687.5	-0.7703232288	-0.2387217687	
688.125	-0.7186370436	0.6565603193	
688.75	0.385576003	0.9030954914	
689.375	0.8514952966	-0.5738049166	
690.0	-0.4345198794	-1.197370739	
690.625	-1.259267235	-0.1164007234	
691.25	-0.5397018299	0.6544749007	
691.875	0.5531925026	0.425048181	
692.5	1.045357275	-0.03079084786	
693.125	0.6892903279	-0.7783013272	
693.75	-0.4205572282	-0.7101457166	
694.375	-0.7318054262	0.6716488215	
695.0	0.8684775565	0.9427848177	
695.625	0.7703707309	-0.8302577174	
696.25	-0.5572256966	-0.3886282705	
696.875	0.07149743001	0.6295342214	
697.5	0.9925585191	0.2505350358	
698.125	0.9992391901	-0.5468082662	
698.75	0.5194331489	-1.064064115	
699.375	0.05312714569	-1.405911577	
700.0	-0.2987799945	-1.56952983	
700.625	-0.64935296	-1.176194558	
701.25	-0.8040315075	-0.6465555099	
701.875	-0.9709095685	0.2337226696	
702.5	-0.8444188863	0.7649328209	
703.125	-0.5554446878	0.8578798907	
703.75	-0.3672849197	0.9310742993	
704.375	-0.4059030519	1.071300045	
705.0	-0.525906531	1.068441814	
705.625	0.2940298431	0.8893404479	
706.25	0.5677106771	-0.1359222896	
706.875	-0.3729436194	-0.4634820208	
707.5	-0.754655985	-0.042761985	
708.125	-0.1486683502	0.7100487616	
708.75	0.6293198674	0.3508140754	
709.375	0.8420587971	-0.3662884419	
710.0	0.5955944573	-0.8150682431	
710.625	0.1564858006	-0.835341866	
711.25	-0.3276041608	-0.4454810768	
711.875	-0.4987445387	0.3169952064	
712.5	0.04125499919	0.7623493137	
713.125	0.6361895675	0.2672121106	
713.75	0.2287409936	-0.6050129815	
714.375	-0.7179726867	-0.4588740561	
715.0	-0.7691056369	0.6128268683	
715.625	0.4312426581	0.6750438689	
716.25	0.3435509403	-0.2960857755	
716.875	-0.4588098236	-0.06069060993	
717.5	0.2066428039	0.7327872995	
718.125	0.9051635236	-0.1173609178	
718.75	-0.02084173022	-1.088469423	
719.375	-1.787558377	-1.153894414	
720.0	-2.562927633	-2.181198128	
720.625	-1.307638069	-4.361690124	
721.25	0.9795768507	-3.922545547	
721.875	0.8980241361	-5.105584902	
722.5	3.627781893	-8.339671909	
723.125	2.922184743	-8.278064343	
723.75	-2.806903988	-7.978357531	
724.375	-6.613896719	-7.327524486	
725.0	-6.248776928	-5.059788596	
725.625	-4.249822941	-3.272235957	
726.25	-2.350337056	-1.803157904	
726.875	-1.838568499	0.1516816103	
727.5	-1.956327711	1.270512487	
728.125	0.2081442189	2.333344377	
728.75	2.287021804	-0.04759557258	
729.375	-1.174912237	-2.957263348	
730.0	-4.225465045	1.274598401	
730.625	0.1061999556	4.346082626	
731.25	2.425563021	1.639016012	
731.875	1.395210208	-0.45615589	
732.5	0.1319910924	-1.412051241	
733.125	-0.3266732432	-1.142346162	
733.75	-0.6688940207	-0.5193683004	
734.375	-0.9720361632	0.5002282598	
735.0	0.1646524522	1.339782675	
735.625	1.153203817	0.04500885033	
736.25	-0.1812081417	-0.6582218766	
736.875	-0.1840686125	0.1885535659	
737.5	0.1802812166	-0.09521299965	
738.125	-0.1097400111	-0.175710361	
738.75	-0.07854621666	0.142727547	
739.375	0.2605694324	0.2971214569	
740.0	0.5482709262	0.1520478258	
740.625	0.7490644986	-0.2173173308	
741.25	0.6733445467	-0.4985334423	
741.875	0.2582549369	-0.5107162208	
742.5	-0.09725750654	-0.4494396414	
743.125	-0.06990256578	-0.4707890331	
743.75	0.1729721877	-0.225302203	
744.375	-0.07015452393	0.08888037016	
745.0	-0.2905788601	-0.1804817752	
745.625	0.08247094373	-0.3991535385	
746.25	0.2651212143	-0.2212139058	
746.875	0.1909931087	-0.225193	
747.5	0.1219334973	-0.2000116327	
748.125	-0.0579618726	-0.2262551871	
748.75	-0.1564922877	-0.2493584672	
749.375	-0.1437256958	-0.1931003961	
750.0	-0.02041606637	-0.0770149072	
