# GHz S RI R 50 
!freq	ReS11	ImS11	
500.0	0.02499481692	-0.04768976904	
500.625	0.05888336077	-0.01300623201	
501.25	-0.1230690965	-0.09159416723	
501.875	-0.2028161212	-0.01127294191	
502.5	-0.09596196895	0.05847730937	
503.125	-0.004019913285	-0.007232254773	
503.75	0.2010152795	0.03516600613	
504.375	-0.03555090176	-0.1566120684	
505.0	-0.1080111243	0.04578282761	
505.625	0.07758663705	0.02861593436	
506.25	0.01382171383	-0.178342042	
506.875	-0.5871412865	0.0728467664	
507.5	-0.4341049268	0.4666327655	
508.125	-0.1833750705	0.6552521286	
508.75	-0.1110323564	1.097190654	
509.375	-0.05643997675	0.5777786163	
510.0	0.1414096306	0.01893059494	
510.625	-0.02725392583	-0.05556733687	
511.25	-0.02233684556	0.05933075377	
511.875	0.02844274451	0.01027406985	
512.5	-0.009225618314	-0.006035560257	
513.125	0.03561154135	0.01352214532	
513.75	-0.005776385392	-0.01833496308	
514.375	-0.08856523419	0.008374393989	
515.0	-0.03499778088	0.3310243561	
515.625	0.1379811127	0.1275961242	
516.25	0.1168526968	-0.1847519966	
516.875	-0.1302197678	-0.1411877998	
517.5	-0.1556186192	-0.01323543564	
518.125	-0.003504145379	0.06388209298	
518.75	0.08574837877	-0.0419837469	
519.375	-0.03415928503	0.04335090466	
520.0	0.03373734335	0.08157996118	
520.625	0.1554565564	-0.02594590407	
521.25	0.1569544698	-0.3648848963	
521.875	-0.194594164	-0.4168005813	
522.5	-0.1424138221	0.268380349	
523.125	0.2983263805	0.2859917617	
523.75	0.42252872	0.09984885854	
524.375	0.436111708	-0.2827529411	
525.0	0.06583448931	-0.628927368	
525.625	-0.2167788652	-0.02970500024	
526.25	0.006906229748	0.126207369	
526.875	0.1543062603	-0.02436661176	
527.5	-0.002202317948	-0.1154560111	
528.125	-0.1017553767	0.01973667652	
528.75	0.02942333328	0.08961015534	
529.375	0.01759479613	-0.04990049463	
530.0	-0.07834373714	-0.01555982112	
530.625	0.002140831518	0.1193360521	
531.25	0.183853904	0.05415388232	
531.875	-0.05426542578	-0.1786538157	
532.5	-0.2507962053	-0.02176563563	
533.125	-0.1445728824	0.1694078142	
533.75	0.06291542279	0.05411473658	
534.375	0.03330420595	-0.09410435974	
535.0	-0.04226351637	0.005942014674	
535.625	-0.03956401036	0.08736826726	
536.25	0.05654059137	0.004822193695	
536.875	-0.07350154681	-0.01396293584	
537.5	-0.1861170524	0.05635499386	
538.125	0.07023142273	0.1390585112	
538.75	0.1133588009	-0.1872467494	
539.375	-0.1057638819	-0.3685491063	
540.0	-0.3715732567	-0.1844382734	
540.625	-0.3341898318	-0.02891963691	
541.25	-0.2647387121	0.2930377183	
541.875	-0.1732836439	0.3455716561	
542.5	0.1517760111	0.1939416202	
543.125	0.2577204709	-0.244908365	
543.75	-0.2015457516	-0.2073756453	
544.375	-0.06301299638	0.224243474	
545.0	0.3246015108	0.1832977361	
545.625	0.4059669629	-0.1433454819	
546.25	0.05258470925	-0.2754132195	
546.875	-0.2353835435	0.05396530416	
547.5	-0.03317044353	0.469375441	
548.125	0.3069003364	0.3143393261	
548.75	0.202231947	-0.2501502275	
549.375	-0.2981752635	-0.3534056413	
550.0	-0.4711964164	0.2481275433	
550.625	0.01171578706	0.4089953417	
551.25	0.3048207246	-0.1584071726	
551.875	-0.2397501244	-0.287737946	
552.5	-0.2023381547	0.1844744084	
553.125	0.1892399867	0.1873991719	
553.75	-0.1187092895	-0.01917606553	
554.375	-0.1306825261	0.1949361468	
555.0	0.1279084201	0.09926259304	
555.625	0.1198928548	-0.262048075	
556.25	-0.242090266	-0.2312307631	
556.875	-0.1630265195	0.1579832373	
557.5	0.1965223713	0.1520182491	
558.125	0.3715727552	0.01921911259	
558.75	0.3366490672	-0.1387852195	
559.375	0.06058016119	-0.263977726	
560.0	-0.2424420931	-0.07135879832	
560.625	-0.2698151697	0.1123158149	
561.25	0.04117034607	0.2772241	
561.875	0.3401665231	0.04320558902	
562.5	-0.03804110871	-0.431103118	
563.125	-0.1101288759	-0.3811703402	
563.75	-0.2849734783	-0.1265220076	
564.375	0.03558186409	0.3490701168	
565.0	0.3057628182	0.2119356269	
565.625	0.1671240138	-0.2166051472	
566.25	-0.1224399085	-0.3590225467	
566.875	-0.3313186966	-0.3835752582	
567.5	-0.3874902595	-0.1907377177	
568.125	-0.2488485658	0.1200821753	
568.75	0.1683671669	0.320431651	
569.375	0.4453476924	0.02929576442	
570.0	0.1826296922	-0.3129026749	
570.625	-0.3568816924	-0.182503878	
571.25	-0.3962649997	0.3611100721	
571.875	0.4005023349	0.2469516592	
572.5	0.1120458184	-0.3419101956	
573.125	-0.3610204523	0.2311705356	
573.75	-0.01246463659	0.4231284764	
574.375	0.1999634172	-0.3002893374	
575.0	0.3142965979	-0.3443705387	
575.625	-0.3526140363	-0.3778136109	
576.25	-0.383644535	-0.03939363599	
576.875	-0.1428702162	0.2452853998	
577.5	0.2749393138	0.2503110893	
578.125	0.3941510414	-0.1202694153	
578.75	0.1868982671	-0.3370717958	
579.375	-0.4071648066	0.005478005836	
580.0	-0.314308378	0.4058390997	
580.625	0.4334186566	0.2543474803	
581.25	0.3912667489	0.0009599397288	
581.875	0.2642605453	-0.2625365442	
582.5	-0.2372393724	-0.363923755	
583.125	-0.3671677609	0.2341178449	
583.75	0.3177952355	0.3162911968	
584.375	0.4617564088	-0.2867263958	
585.0	0.121042799	-0.4703829596	
585.625	0.1126341579	-0.3197835223	
586.25	-0.3698790451	-0.104501549	
586.875	-0.3743138113	0.2690956895	
587.5	-0.08977787517	0.3009441623	
588.125	0.3179234151	0.05550190918	
588.75	0.3179770626	-0.4647460131	
589.375	-0.2599915288	-0.5080113395	
590.0	-0.3577420914	0.06128242595	
590.625	0.1645693905	0.3033523222	
591.25	0.4136196466	-0.1692359272	
591.875	-0.07270236644	-0.2949695098	
592.5	-0.179011707	0.2440575391	
593.125	0.3278413968	0.4125911047	
593.75	0.4788059668	-0.1540817126	
594.375	-0.0850234481	-0.2945104597	
595.0	-0.2892589928	0.2318376452	
595.625	0.08829641925	0.4367592614	
596.25	0.2333832974	0.1188048466	
596.875	-0.2211303359	-0.1666876835	
597.5	-0.3889466095	0.3686985761	
598.125	-0.4545267919	0.2831172457	
598.75	-0.2423274221	0.2302821146	
599.375	0.3116776711	0.05458208247	
600.0	0.3648416484	-0.2805434313	
600.625	0.3335878401	-0.2486666472	
601.25	-0.1394657281	-0.2374108449	
601.875	-0.3608176387	0.1858944063	
602.5	0.2866732909	0.4259271171	
603.125	0.2315276458	0.4108613192	
603.75	0.3802228696	-0.07210133032	
604.375	-0.07764712704	-0.3939271988	
605.0	-0.4310391528	-0.07822784353	
605.625	-0.2404530189	0.2768456532	
606.25	0.1649158318	0.3191657912	
606.875	0.4739090962	0.1043821412	
607.5	0.4391656912	-0.1721046036	
608.125	0.1749643763	-0.3197385699	
608.75	-0.2440734693	-0.3757675096	
609.375	-0.5773499515	-0.05955223896	
610.0	-0.3183128778	0.3977916721	
610.625	0.2865011067	0.2178217943	
611.25	0.2021382325	-0.4483642682	
611.875	-0.3982678834	-0.4345874238	
612.5	-0.5166117064	0.1800743468	
613.125	0.08966901294	0.5405926305	
613.75	0.5394613673	0.2000025266	
614.375	0.4503832774	-0.2660009949	
615.0	-0.130478671	-0.4304232436	
615.625	-0.538209575	0.1142128495	
616.25	-0.1404931005	0.5652994084	
616.875	0.3927058402	0.2218654172	
617.5	0.204989029	-0.4296595056	
618.125	-0.3248100696	-0.5199916609	
618.75	-0.5318212825	0.138972331	
619.375	-0.2531688712	0.1957703428	
620.0	0.3040275495	0.2622274789	
620.625	0.5637196293	-0.06658393954	
621.25	0.4829722653	-0.222423508	
621.875	0.01975005188	-0.381959268	
622.5	-0.3782121618	-0.1286973891	
623.125	-0.2435928141	0.3588213147	
623.75	0.1925399775	0.2690071444	
624.375	0.2383663932	-0.2479483984	
625.0	-0.2128558238	-0.4106574696	
625.625	-0.3770509734	-0.2265103399	
626.25	-0.3378735836	0.1245365351	
626.875	-0.05737793596	0.3997713155	
627.5	0.2853539151	0.3045866426	
628.125	0.3054599775	0.06332772315	
628.75	-0.001591323178	-0.2712689671	
629.375	-0.4081781437	-0.3096827647	
630.0	-0.6135093937	0.02812273134	
630.625	-0.3971878231	0.3018907888	
631.25	0.01640504774	0.3554594623	
631.875	0.4181150167	0.1270631577	
632.5	0.359345867	-0.3458597925	
633.125	-0.14131987	-0.3489260597	
633.75	-0.3250546768	0.2122207621	
634.375	0.2155415434	0.5432569795	
635.0	0.595478458	0.2050243998	
635.625	0.4474180959	-0.2575927197	
636.25	-0.04607736954	-0.4633713185	
636.875	-0.4460585654	-0.2752717246	
637.5	-0.4532026627	0.05167866443	
638.125	-0.07033430931	0.3402023719	
638.75	0.4731894043	0.3303895475	
639.375	0.7124291721	-0.1029000504	
640.0	0.4079841195	-0.4465355567	
640.625	-0.214611697	-0.4291476046	
641.25	-0.6453172605	0.07466635169	
641.875	-0.528085867	0.5197188379	
642.5	0.03130592308	0.5136607062	
643.125	0.4608220661	-0.1075565674	
643.75	0.1651615261	-0.8282816439	
644.375	-0.5021982294	-0.7560142764	
645.0	-0.7369306784	-0.05962824206	
645.625	-0.3625193393	0.6527480838	
646.25	0.3309729035	0.7909824034	
646.875	0.7138544276	0.2034363317	
647.5	0.3878123333	-0.4191504312	
648.125	-0.3941110419	-0.8213559757	
648.75	-1.053578464	-0.2786968355	
649.375	-0.6351800564	0.6154564283	
650.0	0.4204831676	0.6487633752	
650.625	1.059622872	0.009832089957	
651.25	0.930992268	-0.6191291982	
651.875	0.2532858849	-0.7703807953	
652.5	-0.4973918289	-0.2657707318	
653.125	-0.6066575937	0.6457937194	
653.75	0.3974841351	0.9104321763	
654.375	0.8720033007	-0.1402096194	
655.0	-0.1937778281	-0.7433374244	
655.625	-0.718187802	0.3266904469	
656.25	0.4483489339	0.6212388437	
656.875	0.5514952935	-0.4031445589	
657.5	-0.3277281654	-0.6036337952	
658.125	-0.8702822871	-0.1266130135	
658.75	-0.8619780836	0.1633497777	
659.375	-0.5824232555	0.492213164	
660.0	-0.1670295683	0.7403739299	
660.625	0.2410899531	0.8669585454	
661.25	0.6674651501	0.3965823158	
661.875	0.3274467654	-0.2859313996	
662.5	-0.5299027037	-0.1966717611	
663.125	-0.6894987984	0.5137498946	
663.75	-0.2987958503	0.7548978923	
664.375	0.1986311039	0.5090266741	
665.0	0.5291295584	-0.01403750122	
665.625	0.5002992554	-0.4904688582	
666.25	0.0546101525	-0.5888401751	
666.875	-0.3202999509	-0.1676495421	
667.5	-0.1204589012	0.4801838387	
668.125	0.3610654934	0.5009039929	
668.75	0.5067038353	0.1426699422	
669.375	0.2562708777	-0.3701632118	
670.0	-0.2274803768	-0.5249374485	
670.625	-0.45212192	-0.3715376463	
671.25	-0.3456800783	0.004240256192	
671.875	0.08248444397	0.2811956911	
672.5	0.5822934097	0.04490369623	
673.125	0.5394213186	-0.3587109129	
673.75	-0.009550702772	-0.4941927616	
674.375	-0.4476248843	-0.09589898598	
675.0	-0.4015956204	0.44206232	
675.625	0.04974870198	0.5684558479	
676.25	0.3518270483	0.1140372363	
676.875	0.1450308959	-0.4362986138	
677.5	-0.3866576639	-0.553081464	
678.125	-0.694253579	-0.2094867529	
678.75	-0.724167414	0.2413600988	
679.375	-0.5114493802	0.6958546466	
680.0	-0.6030034716	0.6227363389	
680.625	-0.3066175974	0.5124813688	
681.25	0.1345178126	0.5365438052	
681.875	0.6569815085	0.5407447553	
682.5	0.986563217	0.1059856737	
683.125	0.5565226855	-0.7311088981	
683.75	-0.632643313	-0.6630643765	
684.375	-0.8630265235	0.5777259187	
685.0	0.576466439	0.963672934	
685.625	0.8814569715	-0.2233545014	
686.25	-0.0469326627	-0.6580288896	
686.875	-0.8085874648	-0.111402833	
687.5	-0.8014664296	0.6920486511	
688.125	0.08415205741	1.062521725	
688.75	0.989930376	0.211295111	
689.375	0.1325285401	-1.104986686	
690.0	-1.114385755	-0.4736627389	
690.625	-0.6336034937	0.6755604497	
691.25	0.4947714241	0.4663484058	
691.875	0.8797535643	-0.6014942993	
692.5	0.6873142581	-1.041736592	
693.125	-0.2644505388	-0.9646239843	
693.75	-0.9737520236	0.047920287	
694.375	-0.05365775214	1.230561546	
695.0	1.255461634	0.1014627362	
695.625	-0.1024833771	-0.8052378786	
696.25	-0.3055102848	0.5003173295	
696.875	0.9511909862	0.334516585	
697.5	1.06046004	-0.7219251046	
698.125	0.3109147106	-1.191134542	
698.75	-0.4140013325	-1.26756491	
699.375	-0.887668699	-1.230933183	
700.0	-1.145031724	-0.9550889921	
700.625	-1.049488081	-0.2327356654	
701.25	-0.8985195498	0.496708631	
701.875	-0.4230449988	1.139698649	
702.5	0.005120058179	1.253614848	
703.125	0.2357334548	1.06397163	
703.75	0.3519676032	1.062943422	
704.375	0.2631139102	1.130560466	
705.0	0.1384251804	1.006501921	
705.625	0.5480827657	0.303982555	
706.25	0.01800314378	-0.4770163148	
706.875	-0.7073962532	0.09879823554	
707.5	-0.5408683659	0.5698535055	
708.125	0.4277861311	0.5322611101	
708.75	0.7039076508	-0.2315672037	
709.375	0.4039951775	-0.7644125625	
710.0	0.009580745955	-0.7789031282	
710.625	-0.2664621043	-0.3999912778	
711.25	-0.3183317342	0.2194526281	
711.875	0.107663596	0.6487602236	
712.5	0.5935840233	0.3621412067	
713.125	0.4671876814	-0.3394695979	
713.75	-0.3782321402	-0.5528988727	
714.375	-0.7923662247	0.1347605254	
715.0	-0.1894716223	0.693115927	
715.625	0.3675131802	0.1096738896	
716.25	-0.1944766724	-0.1110207114	
716.875	-0.1507167079	0.457165083	
717.5	0.5905451632	0.168824489	
718.125	0.2363665009	-0.5724372441	
718.75	-0.8336374257	-0.4255886703	
719.375	-1.739141664	0.3378980941	
720.0	-2.172814561	-0.2297360914	
720.625	-1.244512913	-1.363124803	
721.25	-0.579773905	0.007510928094	
721.875	-3.417729314	-0.09083640952	
722.5	-3.662565128	-3.122858785	
723.125	-3.187658776	-2.302651184	
723.75	-5.553736284	0.1647710178	
724.375	-6.486671505	-0.3807310221	
725.0	-4.114251954	-0.7120603391	
725.625	-1.403335695	-1.14953869	
726.25	0.2868709167	-0.720528631	
726.875	0.7903714117	0.02072642709	
727.5	0.6047000601	0.2945198205	
728.125	0.1561067419	-0.4931819951	
728.75	-0.8634915981	-0.714882099	
729.375	-1.283922538	0.155761795	
730.0	-1.176630788	0.7053285376	
730.625	-0.9174321792	1.517255492	
731.25	-0.4519561657	1.84710682	
731.875	-0.4897995327	1.539979917	
732.5	0.08888693108	1.006804139	
733.125	0.4299230124	0.6174505028	
733.75	0.4291183321	0.6979783757	
734.375	0.2631335201	0.3441139254	
735.0	-0.009256371005	0.3164694535	
735.625	0.389547925	0.4714574312	
736.25	0.5551044333	-0.4600886498	
736.875	-0.3890083972	-0.410197082	
737.5	-0.1350668852	0.3269641786	
738.125	0.3049749232	0.08878852139	
738.75	0.1464183406	-0.2547103208	
739.375	-0.05114374106	-0.1687362824	
740.0	0.007464216732	0.1811926598	
740.625	0.5358800861	0.4091901592	
741.25	1.193104283	0.2556284813	
741.875	1.226726058	-0.3422686642	
742.5	1.1017655	-0.8666690588	
743.125	0.9579655222	-1.032819441	
743.75	1.107828666	-0.6867853509	
744.375	0.6814985485	-0.1238054908	
745.0	0.2562055022	-0.2101324785	
745.625	0.4311321238	-0.2848740883	
746.25	0.5051255284	-0.1500403571	
746.875	0.3955440121	-0.3127967667	
747.5	0.3471734747	-0.3693763865	
748.125	-0.03525724076	-0.5140238819	
748.75	-0.350946335	-0.4932902929	
749.375	-0.4526227304	-0.20429415	
750.0	-0.2467975794	0.1127833798	
