!Created with skrf (https://github.com/scikit-rf/scikit-rf).
# GHz S RI R 50.0 
!freq	ReS11	ImS11	ReS21	ImS21	ReS12	ImS12	ReS22	ImS22	
500.0	0.0338904472534	-0.00698135165164	1.0	0.0	0.0154776551242	0.063786835413	1.35528728149	0.584252761459	
! Port Impedance	50.00000000000000	0.00000000000000	50.00000000000000	0.00000000000000	
500.625	-0.000559854355689	0.0501969333234	1.0	0.0	-0.0222816487988	0.0315596694315	-0.115548983205	-0.140035302468	
! Port Impedance	50.00000000000000	0.00000000000000	50.00000000000000	0.00000000000000	
501.25	-0.0155956760934	0.0508583703959	1.0	0.0	0.0658326647614	-0.00466206748518	-0.0372508182468	-0.116784531719	
! Port Impedance	50.00000000000000	0.00000000000000	50.00000000000000	0.00000000000000	
501.875	-0.0567588884191	0.00776141044962	1.0	0.0	-0.0257226511795	-0.066618513661	0.013547680087	-0.114714211334	
! Port Impedance	50.00000000000000	0.00000000000000	50.00000000000000	0.00000000000000	
502.5	-0.00872891386763	-0.0462295600055	1.0	0.0	-0.0850556829511	0.028584773166	0.0385233119964	-0.130398550412	
! Port Impedance	50.00000000000000	0.00000000000000	50.00000000000000	0.00000000000000	
503.125	-0.00475790975808	-0.00444102507957	1.0	0.0	0.00255374973828	-0.00515037711261	0.0800705090546	-0.665314925488	
! Port Impedance	50.00000000000000	0.00000000000000	50.00000000000000	0.00000000000000	
503.75	0.0700325999619	-0.00802734222235	1.0	0.0	0.0712637474981	-0.027224334962	-0.00752913292977	-0.111466902804	
! Port Impedance	50.00000000000000	0.00000000000000	50.00000000000000	0.00000000000000	
504.375	0.0341594892809	-0.00912009315436	1.0	0.0	-0.069966454585	0.0107319955486	0.00831514796268	-0.0936498811855	
! Port Impedance	50.00000000000000	0.00000000000000	50.00000000000000	0.00000000000000	
505.0	0.0301793518566	-0.0213664245519	1.0	0.0	0.0485732848394	0.0313571287679	0.00565940448508	-0.113250002755	
! Port Impedance	50.00000000000000	0.00000000000000	50.00000000000000	0.00000000000000	
505.625	-0.0211580991641	-0.0016964320767	1.0	0.0	-0.034954544513	-0.018554903579	-0.0140599595303	-0.102679621042	
! Port Impedance	50.00000000000000	0.00000000000000	50.00000000000000	0.00000000000000	
506.25	-0.0187182681102	0.0556885983968	1.0	0.0	0.0375324460909	0.0958923119632	-0.0016147860537	-0.0731747871824	
! Port Impedance	50.00000000000000	0.00000000000000	50.00000000000000	0.00000000000000	
506.875	-0.03473208148	0.108982353643	1.0	0.0	0.0940365533149	-0.252134444598	0.0223957278357	-0.0842351189373	
! Port Impedance	50.00000000000000	0.00000000000000	50.00000000000000	0.00000000000000	
507.5	-0.147983023105	0.0697308265841	1.0	0.0	-0.256878677714	-0.127479043517	0.0273602084623	-0.0968353879932	
! Port Impedance	50.00000000000000	0.00000000000000	50.00000000000000	0.00000000000000	
508.125	-0.0952304896494	-0.0392848507819	1.0	0.0	-0.315145472852	0.218956608252	0.00849831107599	-0.0979085326292	
! Port Impedance	50.00000000000000	0.00000000000000	50.00000000000000	0.00000000000000	
508.75	0.113722414526	0.0620010057532	1.0	0.0	-0.0778951361034	0.477416965298	0.00415429435022	-0.0834022547006	
! Port Impedance	50.00000000000000	0.00000000000000	50.00000000000000	0.00000000000000	
509.375	0.000579053353243	0.0642178159884	1.0	0.0	0.182264934038	0.14625982932	0.00875326605359	-0.104149238961	
! Port Impedance	50.00000000000000	0.00000000000000	50.00000000000000	0.00000000000000	
510.0	-0.0321842560315	0.025936348458	1.0	0.0	-0.0162666693841	-0.0807844440424	0.00764565611506	-0.106428331425	
! Port Impedance	50.00000000000000	0.00000000000000	50.00000000000000	0.00000000000000	
510.625	-0.0179256141775	0.0364385988855	1.0	0.0	-0.0296942146599	0.0330095913379	-0.0203487785139	-0.0816948133489	
! Port Impedance	50.00000000000000	0.00000000000000	50.00000000000000	0.00000000000000	
511.25	0.0112237392687	0.0156845460534	1.0	0.0	0.0219998120019	-0.0173678654617	0.0177895642272	-0.0713990902614	
! Port Impedance	50.00000000000000	0.00000000000000	50.00000000000000	0.00000000000000	
511.875	0.00352724946323	0.00578538495401	1.0	0.0	-0.0137507392282	0.000254204560599	-0.0181677040356	-0.0737188879268	
! Port Impedance	50.00000000000000	0.00000000000000	50.00000000000000	0.00000000000000	
512.5	0.00362611059257	-0.00214193992445	1.0	0.0	0.00554846923716	-0.00322747027777	0.0250388022411	-0.0996450984467	
! Port Impedance	50.00000000000000	0.00000000000000	50.00000000000000	0.00000000000000	
513.125	-0.00735234127429	-0.000123823185389	1.0	0.0	-0.00540640147916	0.0173046514806	0.00487015712996	-0.0444230155568	
! Port Impedance	50.00000000000000	0.00000000000000	50.00000000000000	0.00000000000000	
513.75	0.0017188230368	0.00095275425393	1.0	0.0	0.00359455498323	-0.00909258293332	0.00190666861671	-0.027305916741	
! Port Impedance	50.00000000000000	0.00000000000000	50.00000000000000	0.00000000000000	
514.375	0.0106989986504	0.00125107044351	1.0	0.0	-0.049708246103	0.00461906949538	0.0378961657176	-0.0875952273005	
! Port Impedance	50.00000000000000	0.00000000000000	50.00000000000000	0.00000000000000	
515.0	0.0528221587775	0.0421435712466	1.0	0.0	0.0626953411529	0.183571107549	0.00893445834505	-0.0794089457769	
! Port Impedance	50.00000000000000	0.00000000000000	50.00000000000000	0.00000000000000	
515.625	0.0232049876627	0.0225454195032	1.0	0.0	0.0944565298575	-0.0393623301071	-0.0149427930591	-0.0740095537886	
! Port Impedance	50.00000000000000	0.00000000000000	50.00000000000000	0.00000000000000	
516.25	-0.00467474593913	0.000205193334033	1.0	0.0	-0.100709593384	-0.0702419730373	-0.00355930240977	-0.0708260306977	
! Port Impedance	50.00000000000000	0.00000000000000	50.00000000000000	0.00000000000000	
516.875	-0.0176043491139	0.000880168957842	1.0	0.0	-0.0156145916675	0.0881343806889	-0.00469437609517	-0.0617075330714	
! Port Impedance	50.00000000000000	0.00000000000000	50.00000000000000	0.00000000000000	
517.5	0.0014988607072	-0.0209642336835	1.0	0.0	0.0804477622	0.000558944914195	-0.00884987088421	-0.0566944247199	
! Port Impedance	50.00000000000000	0.00000000000000	50.00000000000000	0.00000000000000	
518.125	-0.00201596563963	-0.0404612897328	1.0	0.0	-0.0294745274132	-0.0458440496695	-0.0149477202436	-0.0410343412048	
! Port Impedance	50.00000000000000	0.00000000000000	50.00000000000000	0.00000000000000	
518.75	-0.020058949654	-0.0422473467867	1.0	0.0	-0.0254574507502	0.0520061166452	0.0105413640542	-0.0518956812693	
! Port Impedance	50.00000000000000	0.00000000000000	50.00000000000000	0.00000000000000	
519.375	-0.00596699769471	0.0118000181732	1.0	0.0	-0.0206979648421	-0.0173609393886	0.0143268676226	-0.0658725753929	
! Port Impedance	50.00000000000000	0.00000000000000	50.00000000000000	0.00000000000000	
520.0	-0.0288067708862	0.0131196060746	1.0	0.0	-0.0210144713728	0.0521995604065	0.0229788689106	-0.0486082127469	
! Port Impedance	50.00000000000000	0.00000000000000	50.00000000000000	0.00000000000000	
520.625	-0.0508383657011	0.00906992555611	1.0	0.0	0.104952215232	0.0336669465224	0.0121363037587	-0.0505947343509	
! Port Impedance	50.00000000000000	0.00000000000000	50.00000000000000	0.00000000000000	
521.25	-0.0151167332159	-0.0109297127711	1.0	0.0	0.0139892740731	-0.189496346147	0.0228429298755	-0.0498082391116	
! Port Impedance	50.00000000000000	0.00000000000000	50.00000000000000	0.00000000000000	
521.875	0.0379665395223	-0.0432660893547	1.0	0.0	-0.237116830015	0.038167060874	0.0206634167624	-0.0523451580068	
! Port Impedance	50.00000000000000	0.00000000000000	50.00000000000000	0.00000000000000	
522.5	0.0279102509842	-0.0765115771275	1.0	0.0	0.245824437436	0.0474766072328	0.00268657322427	-0.0497676328613	
! Port Impedance	50.00000000000000	0.00000000000000	50.00000000000000	0.00000000000000	
523.125	0.101559066918	-0.08553714431	1.0	0.0	0.0534813098305	-0.286033173113	0.0011836814465	-0.040500999203	
! Port Impedance	50.00000000000000	0.00000000000000	50.00000000000000	0.00000000000000	
523.75	0.0955585376805	-0.0335331277598	1.0	0.0	-0.23145117739	-0.118719205564	0.0199878385516	-0.0211876391415	
! Port Impedance	50.00000000000000	0.00000000000000	50.00000000000000	0.00000000000000	
524.375	0.0299465439066	-0.0210376622633	1.0	0.0	-0.173847672559	0.277132758538	0.0408017378842	-0.0338736872623	
! Port Impedance	50.00000000000000	0.00000000000000	50.00000000000000	0.00000000000000	
525.0	-0.0043232866065	0.0198245415259	1.0	0.0	0.313415044809	0.190626076276	0.0340665828382	-0.047584767459	
! Port Impedance	50.00000000000000	0.00000000000000	50.00000000000000	0.00000000000000	
525.625	0.0413681662762	-0.0193547562689	1.0	0.0	-0.0301774932251	-0.141094687079	0.0488455804115	-0.0448986848118	
! Port Impedance	50.00000000000000	0.00000000000000	50.00000000000000	0.00000000000000	
526.25	0.0149427985099	-0.0718096020403	1.0	0.0	-0.0728705236823	0.0860230430279	0.0544813086118	-0.0466561682545	
! Port Impedance	50.00000000000000	0.00000000000000	50.00000000000000	0.00000000000000	
526.875	-0.0122994956912	-0.057610559713	1.0	0.0	0.103676719207	0.0277746705747	0.0538304447266	-0.0739678892427	
! Port Impedance	50.00000000000000	0.00000000000000	50.00000000000000	0.00000000000000	
527.5	0.00102752026047	-0.0175539216086	1.0	0.0	-0.0348007533065	-0.0690741400559	0.0380763090985	-0.0941382223074	
! Port Impedance	50.00000000000000	0.00000000000000	50.00000000000000	0.00000000000000	
528.125	0.018559012522	-0.02449225121	1.0	0.0	-0.040898516789	0.0852822910019	0.0244995104412	-0.0847939648481	
! Port Impedance	50.00000000000000	0.00000000000000	50.00000000000000	0.00000000000000	
528.75	0.0117129239398	-0.00303891234096	1.0	0.0	0.0599509293727	-0.00435739629447	0.00920099792921	-0.0689204699485	
! Port Impedance	50.00000000000000	0.00000000000000	50.00000000000000	0.00000000000000	
529.375	0.00769930813797	-0.00789038795549	1.0	0.0	-0.0267002299744	0.0121055174837	0.0101381774702	-0.0819739565016	
! Port Impedance	50.00000000000000	0.00000000000000	50.00000000000000	0.00000000000000	
530.0	0.017909975806	-0.0323907825663	1.0	0.0	0.0776265657321	0.00883882041932	0.0158600150442	-0.0668704518548	
! Port Impedance	50.00000000000000	0.00000000000000	50.00000000000000	0.00000000000000	
530.625	0.0759450231138	-0.0186556088195	1.0	0.0	0.0136634675358	-0.120506551538	0.0113972510491	-0.0589003997805	
! Port Impedance	50.00000000000000	0.00000000000000	50.00000000000000	0.00000000000000	
531.25	0.0778692337251	-0.0408975791649	1.0	0.0	-0.117895459694	0.043846395884	0.0301735351955	-0.0573418322771	
! Port Impedance	50.00000000000000	0.00000000000000	50.00000000000000	0.00000000000000	
531.875	-0.0170510466689	-0.033946334608	1.0	0.0	0.138453411168	-0.0073464376308	0.0475697147563	-0.081305408586	
! Port Impedance	50.00000000000000	0.00000000000000	50.00000000000000	0.00000000000000	
532.5	-0.00991512514357	0.0379547327231	1.0	0.0	-0.0165120809178	-0.165148966224	0.0321295854501	-0.0898138878478	
! Port Impedance	50.00000000000000	0.00000000000000	50.00000000000000	0.00000000000000	
533.125	-0.0051627200001	0.0127092254495	1.0	0.0	-0.114592548841	0.0430384674494	0.0194985785874	-0.0896916113789	
! Port Impedance	50.00000000000000	0.00000000000000	50.00000000000000	0.00000000000000	
533.75	-0.0311709623161	0.00494268572238	1.0	0.0	0.0562398494192	0.0254358549143	0.0275676913033	-0.104664674742	
! Port Impedance	50.00000000000000	0.00000000000000	50.00000000000000	0.00000000000000	
534.375	-0.0471007877493	0.0408654962006	1.0	0.0	-0.0094377449503	-0.0816681636383	0.0339246992256	-0.100417776857	
! Port Impedance	50.00000000000000	0.00000000000000	50.00000000000000	0.00000000000000	
535.0	0.00257244220841	0.00940698337504	1.0	0.0	-0.00586196738811	0.0235179104181	-0.00469483947195	-0.121099007207	
! Port Impedance	50.00000000000000	0.00000000000000	50.00000000000000	0.00000000000000	
535.625	-0.0136667228742	0.00140871390647	1.0	0.0	0.0630555141274	0.0112168155318	-0.0155476233416	-0.102783869857	
! Port Impedance	50.00000000000000	0.00000000000000	50.00000000000000	0.00000000000000	
536.25	-0.00796266846186	0.00221293257707	1.0	0.0	-0.0215248641796	-0.036086915954	-0.0087582351939	-0.090527788089	
! Port Impedance	50.00000000000000	0.00000000000000	50.00000000000000	0.00000000000000	
536.875	-0.0121344596839	0.00220980318871	1.0	0.0	0.0353364425043	0.0172621170636	0.00677394580625	-0.0838477411502	
! Port Impedance	50.00000000000000	0.00000000000000	50.00000000000000	0.00000000000000	
537.5	-0.062789879188	-0.00335084478787	1.0	0.0	0.0493528191461	-0.0843562874149	-0.0113990485522	-0.100836564402	
! Port Impedance	50.00000000000000	0.00000000000000	50.00000000000000	0.00000000000000	
538.125	-0.0590046534106	0.0347085680175	1.0	0.0	-0.118654287711	0.0616940099921	-0.00851965582337	-0.0883219347569	
! Port Impedance	50.00000000000000	0.00000000000000	50.00000000000000	0.00000000000000	
538.75	-0.134936794757	-0.0157029080686	1.0	0.0	0.153065106237	0.139077519608	0.00100756377315	-0.0809728698021	
! Port Impedance	50.00000000000000	0.00000000000000	50.00000000000000	0.00000000000000	
539.375	-0.179491028035	-0.0592858174207	1.0	0.0	0.162079383291	-0.147763670577	0.0115083645388	-0.102110859674	
! Port Impedance	50.00000000000000	0.00000000000000	50.00000000000000	0.00000000000000	
540.0	-0.107573748637	0.00309932643028	1.0	0.0	-0.187517505817	-0.166834180428	-0.0135528966248	-0.12209777545	
! Port Impedance	50.00000000000000	0.00000000000000	50.00000000000000	0.00000000000000	
540.625	0.0206700541948	0.0310667068283	1.0	0.0	-0.230701944376	0.0243852592719	-0.0293056394553	-0.114505438214	
! Port Impedance	50.00000000000000	0.00000000000000	50.00000000000000	0.00000000000000	
541.25	0.0319947104915	0.0188624928307	1.0	0.0	0.0128235920041	0.223857601648	-0.0393201198872	-0.103932106241	
! Port Impedance	50.00000000000000	0.00000000000000	50.00000000000000	0.00000000000000	
541.875	-0.0531300097823	-0.0698876046681	1.0	0.0	0.220799757273	0.0829569610605	-0.0368993046127	-0.111816339105	
! Port Impedance	50.00000000000000	0.00000000000000	50.00000000000000	0.00000000000000	
542.5	-0.117842578622	-0.119636347738	1.0	0.0	0.0934139047296	-0.208593436758	-0.0586022198688	-0.110403736837	
! Port Impedance	50.00000000000000	0.00000000000000	50.00000000000000	0.00000000000000	
543.125	-0.0978691264354	-0.0668762467161	1.0	0.0	-0.239861416513	-0.0234813451943	-0.073238339047	-0.0906055465507	
! Port Impedance	50.00000000000000	0.00000000000000	50.00000000000000	0.00000000000000	
543.75	-0.0340682017786	-0.050314279088	1.0	0.0	0.12776169692	0.14001989317	-0.0567938354062	-0.0726988322029	
! Port Impedance	50.00000000000000	0.00000000000000	50.00000000000000	0.00000000000000	
544.375	-0.0384798182518	-0.0188945381262	1.0	0.0	0.00214576763199	-0.186434813982	-0.0429051548469	-0.0800265832014	
! Port Impedance	50.00000000000000	0.00000000000000	50.00000000000000	0.00000000000000	
545.0	0.0689478171553	0.0161276758976	1.0	0.0	-0.190512636646	0.0502784520461	-0.047032220559	-0.0981814470851	
! Port Impedance	50.00000000000000	0.00000000000000	50.00000000000000	0.00000000000000	
545.625	0.150866626036	-0.0224320820835	1.0	0.0	0.0998121553212	0.170971265927	-0.0729694651808	-0.0970649109875	
! Port Impedance	50.00000000000000	0.00000000000000	50.00000000000000	0.00000000000000	
546.25	0.110869145839	-0.0115490158723	1.0	0.0	0.134731056318	-0.160085376201	-0.0672072315555	-0.0923723146555	
! Port Impedance	50.00000000000000	0.00000000000000	50.00000000000000	0.00000000000000	
546.875	0.102873535576	0.139345033965	1.0	0.0	-0.193348006247	-0.122676802099	-0.0731058611463	-0.0843154764332	
! Port Impedance	50.00000000000000	0.00000000000000	50.00000000000000	0.00000000000000	
547.5	0.198068385034	0.161062437127	1.0	0.0	-0.0573781609602	0.23646628973	-0.0860728187888	-0.0939393031617	
! Port Impedance	50.00000000000000	0.00000000000000	50.00000000000000	0.00000000000000	
548.125	0.124325789547	0.0590596944242	1.0	0.0	0.239652963939	0.0180385010816	-0.105036737155	-0.0842502637317	
! Port Impedance	50.00000000000000	0.00000000000000	50.00000000000000	0.00000000000000	
548.75	-0.0241799699669	0.0481748348283	1.0	0.0	-0.101388101867	-0.22037377912	-0.107564007525	-0.0582451372573	
! Port Impedance	50.00000000000000	0.00000000000000	50.00000000000000	0.00000000000000	
549.375	-0.031561596431	0.0922060129523	1.0	0.0	-0.195168510331	0.148458972264	-0.102559805828	-0.0539447846896	
! Port Impedance	50.00000000000000	0.00000000000000	50.00000000000000	0.00000000000000	
550.0	-0.00156194830543	-0.0167709673553	1.0	0.0	0.238952384069	0.0566389111233	-0.100258244554	-0.0444218843716	
! Port Impedance	50.00000000000000	0.00000000000000	50.00000000000000	0.00000000000000	
550.625	-0.109965618173	-0.0670185111068	1.0	0.0	-0.0226756509534	-0.244444596651	-0.0967227440891	-0.0364460252321	
! Port Impedance	50.00000000000000	0.00000000000000	50.00000000000000	0.00000000000000	
551.25	-0.101004841487	0.0185815876487	1.0	0.0	-0.153198318009	0.175643119067	-0.0989267340474	-0.0347732375175	
! Port Impedance	50.00000000000000	0.00000000000000	50.00000000000000	0.00000000000000	
551.875	-0.0709680336536	-0.0160083004648	1.0	0.0	0.201015499202	-0.00911376058066	-0.0820300370763	-0.031264839716	
! Port Impedance	50.00000000000000	0.00000000000000	50.00000000000000	0.00000000000000	
552.5	-0.0719478241549	0.0253051580828	1.0	0.0	-0.104114720726	-0.115585092691	-0.0844399669826	-0.0488862531846	
! Port Impedance	50.00000000000000	0.00000000000000	50.00000000000000	0.00000000000000	
553.125	0.0118335996336	0.0294944260622	1.0	0.0	-0.0647792801269	0.132226314876	-0.100496514421	-0.0485127756089	
! Port Impedance	50.00000000000000	0.00000000000000	50.00000000000000	0.00000000000000	
553.75	-0.0255987509284	-1.69475700813e-05	1.0	0.0	-0.0355265377216	-0.0352014887336	-0.103217039959	-0.0464066723424	
! Port Impedance	50.00000000000000	0.00000000000000	50.00000000000000	0.00000000000000	
554.375	-0.0351179383017	0.0193107298773	1.0	0.0	-0.0326585860946	0.0919577075547	-0.115442437188	-0.0351192656632	
! Port Impedance	50.00000000000000	0.00000000000000	50.00000000000000	0.00000000000000	
555.0	-0.036349520123	-0.026438156469	1.0	0.0	0.0916404403268	-0.0153779126136	-0.124814103993	-0.0196307997695	
! Port Impedance	50.00000000000000	0.00000000000000	50.00000000000000	0.00000000000000	
555.625	-0.126616695199	-0.0229803715645	1.0	0.0	-0.0903300887558	-0.101102939295	-0.115839887828	-0.0176734450505	
! Port Impedance	50.00000000000000	0.00000000000000	50.00000000000000	0.00000000000000	
556.25	-0.0883786506752	0.0212467314095	1.0	0.0	-0.0622690530387	0.124341666249	-0.124540777519	-0.00945343787117	
! Port Impedance	50.00000000000000	0.00000000000000	50.00000000000000	0.00000000000000	
556.875	-0.0175279735008	-0.0315727416417	1.0	0.0	0.146064977983	-0.00376325681938	-0.126413294992	0.00635493256428	
! Port Impedance	50.00000000000000	0.00000000000000	50.00000000000000	0.00000000000000	
557.5	0.00376709569481	-0.0848072944988	1.0	0.0	0.00121368416286	-0.139344007873	-0.119942704118	0.0133444456359	
! Port Impedance	50.00000000000000	0.00000000000000	50.00000000000000	0.00000000000000	
558.125	0.0386773704738	-0.0399426265651	1.0	0.0	-0.133676986141	-0.0372052383448	-0.105734183878	0.0282627561528	
! Port Impedance	50.00000000000000	0.00000000000000	50.00000000000000	0.00000000000000	
558.75	0.0728929806984	0.0348140768857	1.0	0.0	-0.0616327273685	0.130789117789	-0.0951616716304	0.0141896649578	
! Port Impedance	50.00000000000000	0.00000000000000	50.00000000000000	0.00000000000000	
559.375	0.0847861065631	0.0404516392371	1.0	0.0	0.142842936036	0.0558182865407	-0.102000309253	0.00345074244123	
! Port Impedance	50.00000000000000	0.00000000000000	50.00000000000000	0.00000000000000	
560.0	0.0277473133583	0.0187233143718	1.0	0.0	0.0296663157278	-0.161702950208	-0.111100918088	0.0164180396966	
! Port Impedance	50.00000000000000	0.00000000000000	50.00000000000000	0.00000000000000	
560.625	-0.0487256274165	0.0431139002607	1.0	0.0	-0.154107020875	-0.0974556563784	-0.112822029252	0.0165180656458	
