# GHz S RI R 50 
!freq	ReS11	ImS11	
500.0	-0.0109032902	-0.04818004228	
500.625	0.009194909136	-0.04221991761	
501.25	-0.1716028526	-0.01132730058	
501.875	-0.1439089919	0.07112713027	
502.5	0.02340857287	0.06122996421	
503.125	-0.003817289197	-0.01011568465	
503.75	0.1783018594	-0.0553833154	
504.375	-0.09225481025	-0.08354881213	
505.0	-0.04782438136	0.09152444205	
505.625	0.06182306851	-0.02289046734	
506.25	-0.1091424759	-0.1106258628	
506.875	-0.3786724917	0.3905601137	
507.5	-0.04626350689	0.4903586568	
508.125	0.2857587139	0.5117402078	
508.75	0.4696498557	0.8660361571	
509.375	0.1761341245	0.369260227	
510.0	0.04816953734	-0.05597719378	
510.625	-0.06401263337	-0.001851382511	
511.25	0.0195112536	0.05254000027	
511.875	0.01988674555	-0.007833336829	
512.5	-0.007624676153	0.003486675919	
513.125	0.02551021553	-0.01410766873	
513.75	-0.01182982192	-0.004627502831	
514.375	-0.01513662704	0.05921982734	
515.0	0.2229759257	0.1429336878	
515.625	0.1426532259	-0.04419448158	
516.25	-0.0768766539	-0.1824446494	
516.875	-0.1548130301	-0.007338725688	
517.5	-0.060871469	0.06380988406	
518.125	0.05212332444	-0.0008759726454	
518.75	0.01723172562	-0.0996612108	
519.375	0.005317103101	0.04199590809	
520.0	0.05594738818	0.003118834483	
520.625	0.06389663949	-0.1430483813	
521.25	-0.1085364203	-0.2989042149	
521.875	-0.2405571033	-0.06728761638	
522.5	0.1789839154	0.1084336083	
523.125	0.3603824399	-0.1304987503	
523.75	0.2449201633	-0.2181816168	
524.375	-0.004509774539	-0.3729801947	
525.0	-0.3195808275	-0.2792246356	
525.625	-0.05475377487	0.0931603342	
526.25	0.1028063455	-0.01351425825	
526.875	0.03636536921	-0.1321516223	
527.5	-0.0658243939	-0.02377388063	
528.125	0.01712717475	0.0948416931	
528.75	0.08610019019	0.02211242659	
529.375	-0.01625224382	-0.02311224163	
530.0	0.0170581598	0.03848951221	
530.625	0.1546360988	0.04406868939	
531.25	0.132650838	-0.1124987798	
531.875	-0.1585535161	-0.01901340612	
532.5	-0.1529492135	0.1886569361	
533.125	0.03168920834	0.1629780676	
533.75	0.04215228779	-0.03318957629	
534.375	-0.09097971316	-0.07610243006	
535.0	-0.02020589654	0.03531399743	
535.625	0.04614325763	0.0638258151	
536.25	0.03989779106	-0.04861759662	
536.875	-0.05916136864	0.03535690395	
537.5	-0.0565631881	0.1095016112	
538.125	0.06482220972	-0.05111007002	
538.75	-0.1807157243	-0.237334018	
539.375	-0.3303078198	-0.1569351347	
540.0	-0.272544046	0.1500623231	
540.625	-0.1697968223	0.2384778022	
541.25	0.03550534873	0.3163810811	
541.875	0.1303980172	0.18309697	
542.5	0.1876447431	-0.1394093641	
543.125	-0.07619448605	-0.353054465	
543.75	-0.2297463081	0.05818758721	
544.375	0.182920246	0.1792841691	
545.0	0.3741097084	-0.07238043992	
545.625	0.1673178474	-0.2708449388	
546.25	-0.1334733904	-0.05402167849	
546.875	-0.09968631112	0.3393049596	
547.5	0.2901497028	0.3937093441	
548.125	0.3595249697	-0.003454376959	
548.75	-0.1011967626	-0.3356103972	
549.375	-0.4943889983	-0.09788933531	
550.0	-0.1906633304	0.4224945891	
550.625	0.2488558274	0.1714268341	
551.25	0.02554449024	-0.3537568339	
551.875	-0.3554203943	-0.01996027366	
552.5	0.01829117248	0.2457480444	
553.125	0.2827520795	-0.008360917706	
553.75	-0.1009624369	0.0510657626	
554.375	0.02131734139	0.1792414807	
555.0	0.1279915369	-0.05192736025	
555.625	-0.1265217334	-0.2588118805	
556.25	-0.2560056327	0.02780808804	
556.875	0.1064315249	0.1654740588	
557.5	0.3216502292	-0.06042636632	
558.125	0.3106051921	-0.1982844283	
558.75	0.1369507057	-0.2452845895	
559.375	-0.1478454178	-0.1208760424	
560.0	-0.1546197528	0.1887225414	
560.625	-0.0181915423	0.268757859	
561.25	0.2720668645	0.07684620764	
561.875	0.2765985136	-0.2432972131	
562.5	-0.2765579664	-0.2745613859	
563.125	-0.2647720543	-0.1506669027	
563.75	-0.2286996864	0.1478776349	
564.375	0.2726830287	0.1826485233	
565.0	0.2913708201	-0.08964278978	
565.625	-0.1306914137	-0.2628172489	
566.25	-0.3731450122	-0.2286784897	
566.875	-0.4406062859	-0.1349860609	
567.5	-0.2800681488	0.06396175966	
568.125	0.04932768724	0.2181265737	
568.75	0.3820443528	0.08249079526	
569.375	0.2798103825	-0.2555323065	
570.0	-0.1605177472	-0.2616135781	
570.625	-0.3955755627	0.1487717271	
571.25	-0.05852664172	0.4661462564	
571.875	0.3012879885	-0.1076208271	
572.5	-0.2458290585	-0.1896893302	
573.125	0.005261132183	0.3965336903	
573.75	0.2955648939	0.1675832682	
574.375	-0.1866026525	-0.3220688624	
575.0	-0.03368553536	-0.4617016726	
575.625	-0.3936115815	-0.019298112	
576.25	-0.1273832835	0.1895590314	
576.875	0.2034172681	0.1979031933	
577.5	0.3722680081	-0.09315077339	
578.125	0.1154932844	-0.348746285	
578.75	-0.1921000397	-0.2980194605	
579.375	-0.2482489922	0.3443925396	
580.0	0.05731355214	0.4659423474	
580.625	0.3636228262	-0.1076943803	
581.25	0.1123798614	-0.2686832817	
581.875	-0.1338085619	-0.3515183667	
582.5	-0.4214088227	-0.00861527693	
583.125	-0.0003132043517	0.4085645938	
583.75	0.4553306914	-0.03705366233	
584.375	0.1413666488	-0.4668163838	
585.0	-0.1809640207	-0.296747068	
585.625	-0.2201094341	-0.1604329334	
586.25	-0.2776084521	0.2783546808	
586.875	0.01745465215	0.3605265569	
587.5	0.2401788238	0.09018686	
588.125	0.3188294302	-0.334637858	
588.75	-0.06197920898	-0.5584260389	
589.375	-0.357533633	-0.1355145612	
590.0	0.02231352717	0.2117142475	
590.625	0.3783981999	-0.06950600665	
591.25	0.01201347296	-0.3531875557	
591.875	-0.2384257522	0.101300867	
592.5	0.1848763353	0.4278813209	
593.125	0.5344620105	0.07190915416	
593.75	0.126199299	-0.3255336444	
594.375	-0.2644090408	0.06116576991	
595.0	0.079942185	0.4116243718	
595.625	0.3067890194	0.08423909858	
596.25	0.007366978856	-0.2220376589	
596.875	-0.4595510417	0.1408507977	
597.5	-0.07624095577	0.5739358078	
598.125	-0.09599103681	0.3841278553	
598.75	0.1292317825	0.1843563129	
599.375	0.1963714778	-0.3474975719	
600.0	-0.02905385786	-0.4135264393	
600.625	-0.1004233856	-0.2770932906	
601.25	-0.3051603637	0.158408579	
601.875	-0.05278176345	0.5181632055	
602.5	0.4852279621	0.03227274655	
603.125	0.35973022	-0.02429209462	
603.75	-0.01887675282	-0.3485432782	
604.375	-0.4005814329	-0.02320473607	
605.0	-0.1312594956	0.3404433459	
605.625	0.2747394345	0.1994762381	
606.25	0.4259649487	-0.1518584182	
606.875	0.2628880191	-0.4058749971	
607.5	-0.08033083939	-0.3593683712	
608.125	-0.381631169	-0.1213713664	
608.75	-0.5402083565	0.185521105	
609.375	-0.2184518524	0.4733391841	
610.0	0.312427523	0.1860961128	
610.625	0.1653295531	-0.471877394	
611.25	-0.4999405244	-0.4232078831	
611.875	-0.5440441662	0.2226855914	
612.5	0.1019469478	0.5434958745	
613.125	0.6387122951	0.04423163916	
613.75	0.3525153643	-0.4899052931	
614.375	-0.2623925336	-0.4464744639	
615.0	-0.6000937813	0.1669005312	
615.625	-0.08368313985	0.6756650886	
616.25	0.480989433	0.2850344728	
616.875	0.291106331	-0.4268828428	
617.5	-0.4774972188	-0.4474046141	
618.125	-0.6309237155	0.08839808973	
618.75	0.0939564724	0.4044579345	
619.375	0.4472734021	0.2176052829	
620.0	0.6305995541	-0.3231233873	
620.625	0.2626434999	-0.5989806704	
621.25	-0.06293344934	-0.4696134713	
621.875	-0.4706250341	-0.01467633662	
622.5	-0.2812255627	0.4766602706	
623.125	0.3785991214	0.3358177323	
623.75	0.350160365	-0.3123717633	
624.375	-0.3085441364	-0.5386094427	
625.0	-0.6233068266	-0.02417339686	
625.625	-0.4028331931	0.2811281817	
626.25	0.0261418192	0.4567331941	
626.875	0.4552849045	0.272475879	
627.5	0.4252506138	-0.1901157916	
628.125	0.06877006847	-0.3944910315	
628.75	-0.5005352492	-0.2487966164	
629.375	-0.7284197779	0.09046367453	
630.0	-0.4493245887	0.459000187	
630.625	0.03231789735	0.43944852	
631.25	0.4236002974	0.1191479863	
631.875	0.4509672619	-0.3768492223	
632.5	-0.1113385858	-0.5336247156	
633.125	-0.4512454747	0.03492305823	
633.75	-0.03584590699	0.610835051	
634.375	0.6333733291	0.3347510436	
635.0	0.5769626509	-0.2388477445	
635.625	0.04366439738	-0.4957241808	
636.25	-0.4914104498	-0.2336737376	
636.875	-0.5104189737	0.2420166497	
637.5	-0.08524873569	0.4610130007	
638.125	0.4712655978	0.3335265379	
638.75	0.7906387723	-0.1264056988	
639.375	0.4771801317	-0.5698531629	
640.0	-0.1101383752	-0.535459729	
640.625	-0.5982451179	-0.0272370031	
641.25	-0.4701371884	0.6350874656	
641.875	0.08753569678	0.6950958506	
642.5	0.5031107095	0.06566871414	
643.125	0.2955462122	-0.7702990486	
643.75	-0.5043293929	-0.9388236719	
644.375	-0.8984445127	-0.2552796069	
645.0	-0.5410485459	0.5347884889	
645.625	0.2814210145	0.8157265341	
646.25	0.8182605152	0.2781742028	
646.875	0.4360253405	-0.5054034095	
647.5	-0.2715672938	-0.7356808323	
648.125	-1.023476965	-0.412162052	
648.75	-0.9570853971	0.4221951701	
649.375	0.0231944981	0.7852812186	
650.0	0.8794890603	0.166026635	
650.625	0.9126849287	-0.6947512818	
651.25	0.2499162298	-0.9368407214	
651.875	-0.463279818	-0.3892624356	
652.5	-0.5985650012	0.5486258339	
653.125	0.07169071234	1.116424622	
653.75	0.9185130418	0.4151702667	
654.375	0.4406133489	-0.6800759535	
655.0	-0.6759011149	-0.287975782	
655.625	-0.165051173	0.7378981607	
656.25	0.6712152623	-0.07293561431	
656.875	-0.2039277971	-0.6287143541	
657.5	-0.8389873807	0.03973581464	
658.125	-0.6846703784	0.6584422586	
658.75	-0.4275308148	0.7291698912	
659.375	0.07884031427	0.7527551038	
660.0	0.5126271548	0.6481558185	
660.625	0.7548196468	0.3719957961	
661.25	0.4900339389	-0.2790811261	
661.875	-0.3619934011	-0.3668641999	
662.5	-0.7364339267	0.4350701154	
663.125	-0.2149713251	0.8819213253	
663.75	0.2560290744	0.6051431746	
664.375	0.4539552339	-0.01634123912	
665.0	0.327216841	-0.5445483319	
665.625	-0.03390485749	-0.6497570574	
666.25	-0.3557564488	-0.2353088771	
666.875	-0.2462294462	0.3559242136	
667.5	0.3914321672	0.4818721148	
668.125	0.5590842679	0.08254758746	
668.75	0.3160963797	-0.2660758615	
669.375	-0.2008073834	-0.399505643	
670.0	-0.5087585343	-0.1519236462	
670.625	-0.3663050496	0.1146230613	
671.25	0.09440178427	0.24503782	
671.875	0.5491329816	0.05084675218	
672.5	0.4808482919	-0.4668664928	
673.125	0.05491271684	-0.5180447604	
673.75	-0.356763687	-0.1010395356	
674.375	-0.2792471734	0.4234535191	
675.0	0.167901446	0.5496197273	
675.625	0.4144221283	0.07450094257	
676.25	0.07527999851	-0.4548845918	
676.875	-0.4982850458	-0.4727594626	
677.5	-0.7444994079	0.003049228866	
678.125	-0.5532248878	0.4396775884	
678.75	-0.2062449387	0.7365291733	
679.375	0.2241999545	0.7490745309	
680.0	0.2014771833	0.5758876947	
680.625	0.4480675572	0.2594866282	
681.25	0.8120315198	0.08946088005	
681.875	1.008038448	-0.1790519397	
682.5	0.7260303563	-0.6212654614	
683.125	-0.1894159961	-0.7973846418	
683.75	-0.8486647174	0.0753677144	
684.375	-0.1361760812	0.9239072523	
685.0	0.8157777256	0.124842392	
685.625	0.1099233604	-0.5828009745	
686.25	-0.680346408	-0.06000092377	
686.875	-0.6715347328	0.7132072588	
687.5	-0.07581803553	1.051198182	
688.125	0.727492021	0.5927603948	
688.75	0.7021237872	-0.5640934749	
689.375	-0.6541508051	-0.7504858712	
690.0	-0.7703011911	0.418387656	
690.625	0.3470217917	0.4786798264	
691.25	0.7213724598	-0.5770057333	
691.875	0.09982307999	-1.262014179	
692.5	-0.2876057696	-1.096601371	
693.125	-0.8233232497	-0.2614994643	
693.75	-0.5524052441	0.8588989189	
694.375	0.7350411777	0.8519156211	
695.0	0.6273721592	-0.5379813436	
695.625	-0.4290818857	-0.01127541132	
696.25	0.576515259	0.5928878905	
696.875	1.026244821	-0.5213882662	
697.5	0.2919397692	-1.126157661	
698.125	-0.505070494	-0.9331540316	
698.75	-1.039510865	-0.5761720966	
699.375	-1.190061743	-0.2917633613	
700.0	-0.930743145	0.1140005899	
700.625	-0.3124319443	0.5845750563	
701.25	0.1827826748	1.030663478	
701.875	0.6130787493	0.9850465742	
702.5	0.7809801549	0.6843912976	
703.125	0.7789374877	0.4368699871	
703.75	0.7903240807	0.4342918171	
704.375	0.6132491006	0.5054260785	
705.0	0.3471915225	0.3181230929	
705.625	0.06328702438	-0.2255039217	
706.25	-0.5608899541	-0.01333338608	
706.875	-0.2552274528	0.6376681853	
707.5	0.1382561756	0.5616132164	
708.125	0.4802236223	-0.0930021036	
708.75	0.1407782898	-0.5353741838	
709.375	-0.173841364	-0.4751437273	
710.0	-0.1794168487	-0.1171240598	
710.625	0.08092147145	0.230746723	
711.25	0.4166901514	0.3909037225	
711.875	0.6162428841	0.09487852221	
712.5	0.3342904005	-0.3105059314	
713.125	-0.2191657932	-0.3607557851	
713.75	-0.4981782698	0.1106317132	
714.375	-0.1807790639	0.3778355889	
715.0	0.0537344453	0.06851827532	
715.625	-0.2969457042	0.06169863338	
716.25	-0.0658228754	0.4863926293	
716.875	0.4073476238	0.2627032298	
717.5	0.1372354619	-0.3402681334	
718.125	-0.4295876456	-0.0145349285	
718.75	-0.3178915551	0.6063379113	
719.375	-0.09772933887	0.6207209456	
720.0	0.03690837346	-0.3190898891	
720.625	2.062173131	-0.9232217172	
721.25	3.321097225	2.067163853	
721.875	0.785243401	4.896396226	
722.5	-0.106180237	4.60732156	
723.125	1.719030891	6.301076162	
723.75	3.022306617	5.101754035	
724.375	1.692775669	0.8104056981	
725.0	0.6586953277	-3.28604823	
725.625	0.8362537403	-4.239821388	
726.25	1.377126218	-3.428923135	
726.875	0.7391134768	-2.550629313	
727.5	-0.3233178616	-2.132856843	
728.125	-2.48233151	-0.6260880208	
728.75	-1.650433726	2.120456681	
729.375	1.62455104	0.4682407227	
730.0	-1.591144333	-2.225207346	
730.625	-3.694719381	2.376066394	
731.25	-0.1673433354	4.414269289	
731.875	1.081245741	3.146074473	
732.5	2.012979719	1.146563686	
733.125	1.911430653	0.2072236228	
733.75	1.5887975	-0.1094149867	
734.375	0.2289193425	-0.7145722045	
735.0	-0.9085073258	0.3885574169	
735.625	0.6938116601	1.152423024	
736.25	0.7259944029	-1.053727908	
736.875	-0.8264112915	-0.3091997125	
737.5	0.1390968895	0.607806284	
738.125	0.5687729926	-0.1670301249	
738.75	-0.1361141435	-0.506730202	
739.375	-0.4424854976	0.02675581006	
740.0	-0.02630080216	0.6329658373	
740.625	1.013056579	0.629548159	
741.25	1.75221046	-0.08759886816	
741.875	1.425200029	-1.047876305	
742.5	0.9810607	-1.69694287	
743.125	0.7308454431	-1.794239778	
743.75	0.9674758464	-1.392793834	
744.375	0.6705754923	-0.6531112312	
745.0	0.3370292939	-0.5946917224	
745.625	0.5727271461	-0.4981983813	
746.25	0.5982173854	-0.306824956	
746.875	0.373819431	-0.4662258845	
747.5	0.2671145807	-0.5350092321	
748.125	-0.2119863565	-0.5909518571	
748.75	-0.5540764577	-0.4423392029	
749.375	-0.5274163161	-0.01961815546	
750.0	-0.1908052524	0.3052952722	
