# GHz S RI R 50 
!freq	ReS11	ImS11	
500.0	-0.01699665011	-0.008107690599	
500.625	-0.03732923663	-0.01770307185	
501.25	-0.1325554485	0.08082502947	
501.875	-0.04040770912	0.07289870882	
502.5	0.09561897339	-0.03040357009	
503.125	-0.004279700394	-0.01167712952	
503.75	0.09417194349	-0.09763775683	
504.375	-0.07055320371	0.009529104074	
505.0	0.02835177022	0.0683842642	
505.625	0.009826404932	-0.04040465893	
506.25	-0.1286001124	0.02634698399	
506.875	0.002608472672	0.4163380367	
507.5	0.2237630742	0.2024899497	
508.125	0.4756578144	0.02876431948	
508.75	0.6408842586	0.2116625384	
509.375	0.1379321068	0.03698650343	
510.0	-0.06913749913	-0.01046824909	
510.625	-0.03708424074	0.05785265591	
511.25	0.03701736185	0.01326025105	
511.875	-0.0007871085495	-0.01031003596	
512.5	0.00170561647	0.006425331538	
513.125	-0.004197934979	-0.02064104923	
513.75	-0.002685755634	0.008331418997	
514.375	0.06242729277	0.02218513343	
515.0	0.2046966799	-0.1490395295	
515.625	0.003898402895	-0.1336282687	
516.25	-0.1717400219	-0.02298102885	
516.875	-0.05633007435	0.08007517474	
517.5	0.04771451384	0.01972163818	
518.125	0.02385526037	-0.07369294146	
518.75	-0.06024243803	-0.07217172706	
519.375	0.02242296397	0.0109813719	
520.0	0.008268601027	-0.0510484259	
520.625	-0.07726986067	-0.1288332821	
521.25	-0.1788423913	-0.05388030031	
521.875	0.02393562512	0.1227044308	
522.5	0.1928146445	-0.2168261101	
523.125	0.06586461815	-0.3488216166	
523.75	-0.07729162501	-0.2323241061	
524.375	-0.2883956868	-0.07948964181	
525.0	-0.217591742	0.1877850248	
525.625	0.116460884	0.02190705576	
526.25	0.04190744997	-0.1421608344	
526.875	-0.09156626944	-0.0932313803	
527.5	-0.0313027024	0.06217101454	
528.125	0.1254924	0.04388208958	
528.75	0.0611176241	-0.05126590219	
529.375	-0.01259680194	0.01165238983	
530.0	0.1004189358	-0.00555674603	
530.625	0.1696406241	-0.09965802162	
531.25	-0.009025787415	-0.1510599401	
531.875	-0.09486855926	0.1323902753	
532.5	0.04852274465	0.2197964377	
533.125	0.1088175067	0.02790983163	
533.75	-0.03058352328	-0.05820006457	
534.375	-0.1307838171	0.02164277939	
535.0	0.01111887142	0.03327813145	
535.625	0.07051102422	-0.008996807024	
536.25	-0.008490767029	-0.06086708414	
536.875	-0.01697445497	0.04714126693	
537.5	0.03183840659	0.04143469749	
538.125	-0.060581062	-0.13156762	
538.75	-0.3356352704	-0.06878619458	
539.375	-0.2977529175	0.07903904919	
540.0	-0.02429415865	0.2473989436	
540.625	0.07690724408	0.2773470151	
541.25	0.218852439	0.1324819246	
541.875	0.1732129054	-0.1060131936	
542.5	-0.01308771671	-0.3312795489	
543.125	-0.3121276369	-0.1965711489	
543.75	-0.07833960335	0.2139863426	
544.375	0.2954862338	-0.001404829214	
545.0	0.2280279701	-0.2563416356	
545.625	-0.057995299	-0.1731169136	
546.25	-0.08296480937	0.1989905661	
546.875	0.1824971707	0.3928382233	
547.5	0.4072595287	0.1223863907	
548.125	0.169178856	-0.2108356762	
548.75	-0.328485627	-0.1684003455	
549.375	-0.4173816604	0.1790835888	
550.0	0.080665763	0.3155159401	
550.625	0.2067760393	-0.1235627186	
551.25	-0.252548059	-0.2566316335	
551.875	-0.2386832585	0.203307069	
552.5	0.1816786138	0.1254031657	
553.125	0.2019138509	-0.1817284903	
553.75	-0.04186167613	0.0799037152	
554.375	0.09779964922	0.05901638733	
555.0	0.01499039834	-0.1360250263	
555.625	-0.2463541059	-0.07627620967	
556.25	-0.08621942027	0.1705253306	
556.875	0.2532191544	-0.01517087438	
557.5	0.243621115	-0.2661007928	
558.125	0.1226532257	-0.2847024578	
558.75	-0.0639817244	-0.1582567466	
559.375	-0.142818497	0.1127429271	
560.0	0.07154757719	0.249712206	
560.625	0.2067044494	0.1756819791	
561.25	0.2707391726	-0.1660788427	
561.875	0.05922149295	-0.379666081	
562.5	-0.327593091	-0.01660440858	
563.125	-0.2086630712	0.1149222401	
563.75	0.01775941639	0.2853655326	
564.375	0.292262411	-0.09568025659	
565.0	0.05324127963	-0.2664900146	
565.625	-0.3451128325	-0.06151336511	
566.25	-0.426565816	0.04529899913	
566.875	-0.3097872774	0.1082364378	
567.5	-0.006137706085	0.126943792	
568.125	0.2915322409	0.03232429371	
568.75	0.3013279257	-0.2155036133	
569.375	-0.02825375678	-0.2746491982	
570.0	-0.3029803566	0.01616814047	
570.625	-0.1675125672	0.3755462671	
571.25	0.2153846045	0.252334345	
571.875	-0.03653712438	-0.2170982914	
572.5	-0.3080224834	0.1637294957	
573.125	0.3114908228	0.2018209232	
573.75	0.2752004908	-0.1847450133	
574.375	-0.4196602826	-0.06598763162	
575.0	-0.3248062493	-0.2736936402	
575.625	-0.157225963	0.2200038336	
576.25	0.1999845129	0.144398691	
576.875	0.3670930731	-0.1053743926	
577.5	0.1590521764	-0.3700719316	
578.125	-0.2187534574	-0.2569035013	
578.75	-0.3796402338	0.01318755563	
579.375	0.1094709696	0.426588474	
580.0	0.3373135238	0.2066396577	
580.625	0.01490626152	-0.280877588	
581.25	-0.2755193221	-0.1779503695	
581.875	-0.4199708148	-0.07231451225	
582.5	-0.2361339945	0.3365043096	
583.125	0.3514522111	0.2142866412	
583.75	0.2455723899	-0.3721101337	
584.375	-0.2144231467	-0.2944890032	
585.0	-0.2019275426	0.0839408173	
585.625	-0.238403718	0.2293155357	
586.25	0.1041945166	0.3707017462	
586.875	0.2772732913	0.07407965601	
587.5	0.2216717148	-0.2837896328	
588.125	-0.003876157582	-0.5280005265	
588.75	-0.3341671323	-0.2870590667	
589.375	-0.1005798903	0.1502918838	
590.0	0.3443762369	-0.0557345532	
590.625	0.1442519746	-0.4202683372	
591.25	-0.3043838947	-0.1027480982	
591.875	-0.005147391197	0.4086597957	
592.5	0.5062587434	0.2271076675	
593.125	0.3604032571	-0.26989806	
593.75	-0.1961181622	-0.1223436868	
594.375	-0.04517737865	0.3888924717	
595.0	0.3882093207	0.177598396	
595.625	0.1300272626	-0.2400670926	
596.25	-0.3563591503	-0.2162977063	
596.875	-0.3468420505	0.4884932882	
597.5	0.2695018767	0.4259223218	
598.125	0.1818575224	0.142520551	
598.75	0.2960259142	-0.1627121847	
599.375	-0.2095299108	-0.4316331125	
600.0	-0.3477801353	-0.1417235076	
600.625	-0.3273672168	0.09144008077	
601.25	-0.04429051511	0.4930834402	
601.875	0.3874861647	0.3984814334	
602.5	0.2332162642	-0.3346602409	
603.125	0.02151160319	-0.3479214582	
603.75	-0.4390686679	-0.09337460352	
604.375	-0.1953345389	0.4114209837	
605.0	0.3508226456	0.2401541414	
605.625	0.4075750193	-0.276783162	
606.25	0.1121530036	-0.5521449149	
606.875	-0.2431096777	-0.4192280334	
607.5	-0.4435202756	0.00683477124	
608.125	-0.4143302081	0.4226707581	
608.75	-0.1657776634	0.6303856489	
609.375	0.3502829759	0.3534934723	
610.0	0.3427995994	-0.3902673776	
610.625	-0.4101558164	-0.6009041954	
611.25	-0.7245746297	0.1176119206	
611.875	-0.1102444106	0.5968754056	
612.5	0.6410503473	0.1931590783	
613.125	0.4526210584	-0.6011394045	
613.75	-0.287231323	-0.5815345229	
614.375	-0.6438144078	0.06570816197	
615.0	-0.2914585522	0.7301260491	
615.625	0.5009181893	0.514515515	
616.25	0.5062692631	-0.2686466578	
616.875	-0.2559524255	-0.6054469888	
617.5	-0.7401030151	0.08101763772	
618.125	-0.2541681809	0.5536918962	
618.75	0.5033095505	0.009210971244	
619.375	0.6859676462	-0.3023151506	
620.0	0.3072742823	-0.7560029323	
620.625	-0.2338730588	-0.5622349124	
621.25	-0.4461495527	-0.1656392598	
621.875	-0.36274582	0.4894842076	
622.5	0.2083796677	0.602117877	
623.125	0.54232399	-0.1252920345	
623.75	0.002095796654	-0.6007149592	
624.375	-0.6823971483	-0.2646539642	
625.0	-0.5141013061	0.3862050616	
625.625	-0.0775775051	0.4940914392	
626.25	0.4042044865	0.3360205071	
626.875	0.5507543149	-0.131598859	
627.5	0.1387981611	-0.4652600051	
628.125	-0.3122305516	-0.397172673	
628.75	-0.6698060652	0.07558290549	
629.375	-0.6046201687	0.4425692883	
630.0	-0.1063085197	0.5578898648	
630.625	0.3301727664	0.2284406439	
631.25	0.4507659187	-0.2718356384	
631.875	0.1118921398	-0.6161153919	
632.5	-0.4353044028	-0.2973119085	
633.125	-0.3425903672	0.3975759179	
633.75	0.3521870987	0.6050402255	
634.375	0.7085281442	-0.03715969599	
635.0	0.2709904636	-0.4752605315	
635.625	-0.3486414806	-0.3335699032	
636.25	-0.5392693631	0.2212553212	
636.875	-0.1492885767	0.5235577297	
637.5	0.3647490624	0.3822279048	
638.125	0.7125161529	-0.05801353647	
638.75	0.6033484104	-0.5455821007	
639.375	0.05016392857	-0.6360538002	
640.0	-0.4338463296	-0.2265140605	
640.625	-0.5049612473	0.4526567689	
641.25	0.03487627727	0.7763061644	
641.875	0.4956308707	0.3213800139	
642.5	0.4165620982	-0.4692312271	
643.125	-0.2621697003	-0.9549369566	
643.75	-0.895084032	-0.5246798058	
644.375	-0.7482202783	0.2687481989	
645.0	-0.0136270835	0.701451809	
645.625	0.7053768335	0.4160305426	
646.25	0.6768853758	-0.3031862934	
646.875	-0.1495897953	-0.6424268524	
647.5	-0.814214916	-0.4722303314	
648.125	-1.084519217	0.2246226086	
648.75	-0.4354340296	0.7733097091	
649.375	0.5538224814	0.4392128029	
650.0	0.8028572423	-0.5022809264	
650.625	0.2361453758	-0.9829374656	
651.25	-0.3849954275	-0.5483742007	
651.875	-0.5103588417	0.3683077744	
652.5	-0.01109466484	1.02790003	
653.125	0.7446835694	0.8121774283	
653.75	0.8256230241	-0.2289714643	
654.375	-0.2149322213	-0.6550515002	
655.0	-0.5838993551	0.3735038572	
655.625	0.4827213966	0.4735536283	
656.25	0.1990116584	-0.5891042695	
656.875	-0.7320305261	-0.128616581	
657.5	-0.5578313402	0.7356675613	
658.125	-0.02601508876	0.8772276739	
658.75	0.2372972236	0.7063782313	
659.375	0.6213812815	0.3684681277	
660.0	0.7942183098	0.04778712777	
660.625	0.5984871616	-0.2897912563	
661.25	-0.143043345	-0.4572315632	
661.875	-0.7247523213	0.1473234299	
662.5	-0.3396736561	0.873302248	
663.125	0.2905626955	0.7108920388	
663.75	0.4350603816	0.09681142163	
664.375	0.1654276964	-0.4787846857	
665.0	-0.1978442486	-0.6403459775	
665.625	-0.4269720891	-0.3171486418	
666.25	-0.2785745831	0.2631587412	
666.875	0.1984909387	0.5446467844	
667.5	0.6330624288	0.1005612512	
668.125	0.3690523348	-0.2937814512	
668.75	-0.1168153178	-0.3604648235	
669.375	-0.4940664899	-0.03495555134	
670.0	-0.3304771455	0.311226083	
670.625	0.1012323721	0.2838620056	
671.25	0.5099948161	-0.03021409617	
671.875	0.5484696251	-0.4407133961	
672.5	0.02771459571	-0.607725428	
673.125	-0.3107159086	-0.2238144987	
673.75	-0.2163082965	0.3802946374	
674.375	0.2420347659	0.5446146074	
675.0	0.5358680238	0.1073060028	
675.625	0.1669778535	-0.4640872994	
676.25	-0.5184685553	-0.4668981487	
676.875	-0.8089705632	0.03413268849	
677.5	-0.4855505732	0.5312488497	
678.125	0.0256070707	0.6810985426	
678.75	0.4638482132	0.5726102981	
679.375	0.6585526495	0.1575044497	
680.0	0.5630418384	-0.1030189084	
680.625	0.630781405	-0.5012589474	
681.25	0.7694488684	-0.7023625321	
681.875	0.5902361442	-0.8291145446	
682.5	0.001176281428	-0.8156149968	
683.125	-0.7060674352	-0.2225759508	
683.75	-0.3169556346	0.7309012378	
684.375	0.62036739	0.4232255585	
685.0	0.189583936	-0.5481593301	
685.625	-0.6829424046	-0.04407472914	
686.25	-0.4217879088	0.8450986395	
686.875	0.2089920635	0.9963407405	
687.5	0.6516910279	0.5368794718	
688.125	0.5897265987	-0.3101214692	
688.75	-0.2540523484	-0.6495341791	
689.375	-0.6049269412	0.270105739	
690.0	0.2697478199	0.3962022313	
690.625	0.5058592371	-0.5739281171	
691.25	-0.1908318022	-1.117758708	
691.875	-0.7932047945	-0.7673648204	
692.5	-0.7140064711	-0.2476295906	
693.125	-0.3991573845	0.5542024497	
693.75	0.3653822132	0.7996965841	
694.375	0.7058064694	-0.07107524786	
695.0	-0.2219485375	-0.2090422546	
695.625	0.2076007563	0.6141028601	
696.25	0.9500298229	-0.1891025753	
696.875	0.2872157861	-0.9333619741	
697.5	-0.421239284	-0.611460248	
698.125	-0.6284306389	-0.001699618072	
698.75	-0.5800341694	0.3317466239	
699.375	-0.3631984172	0.373664749	
700.0	0.1729917908	0.2759266438	
700.625	0.7185142375	0.1501337521	
701.25	1.015365011	0.1950370415	
701.875	0.8598528909	-0.005272906227	
702.5	0.5971847399	-0.2597487249	
703.125	0.4150322584	-0.3818733778	
703.75	0.322445464	-0.2887632769	
704.375	0.07885635937	-0.1049819878	
705.0	-0.3036270747	-0.1296398551	
705.625	-0.6084185337	0.166983093	
706.25	-0.2239008143	0.6145396442	
706.875	0.3476286725	0.3620802908	
707.5	0.3345587848	-0.03954443943	
708.125	-0.09017160182	-0.3667916338	
708.75	-0.342895853	-0.08040906622	
709.375	-0.0520285425	0.2075784225	
710.0	0.4205119397	0.2162269557	
710.625	0.7566529331	0.0408499837	
711.25	0.7150208346	-0.2530653038	
711.875	0.2457784653	-0.4841809775	
712.5	-0.3267874457	-0.2676999622	
713.125	-0.4318253547	0.2695098732	
713.75	0.09363530902	0.4063050962	
714.375	0.20591402	-0.1568519141	
715.0	-0.4838685032	-0.2768505178	
715.625	-0.4397155316	0.6394746087	
716.25	0.4411192825	0.4945444937	
716.875	0.3927781993	-0.2691401051	
717.5	-0.4309911119	-0.08870354544	
718.125	-0.1030593487	0.7615084995	
718.75	0.781098741	0.3746894381	
719.375	0.5368080441	-0.8740021523	
720.0	0.3155701123	-2.353122978	
720.625	2.872891022	-3.879628473	
721.25	5.471079479	-1.005973095	
721.875	5.719636338	2.017715449	
722.5	7.382134698	2.653862689	
723.125	9.580295758	3.240968332	
723.75	7.881241055	-1.627355284	
724.375	3.303051336	-5.913926729	
725.0	-0.8744013456	-7.176981074	
725.625	-1.289125335	-6.125538065	
726.25	-0.3916191497	-4.263162687	
726.875	-0.9659502766	-2.830424632	
727.5	-2.040194358	-2.04590899	
728.125	-3.247126412	1.246104629	
728.75	0.3519744977	3.319834145	
729.375	2.438332602	-1.649526194	
730.0	-3.718099613	-2.373837045	
730.625	-3.461949228	4.419842924	
731.25	1.409122657	4.735054986	
731.875	2.534734036	2.573731721	
732.5	2.701140158	-0.0773660895	
733.125	2.112500194	-0.9686584798	
733.75	1.306815953	-1.183710912	
734.375	-0.546224694	-0.9862579018	
735.0	-1.05717954	1.042806486	
735.625	1.219661813	1.094875283	
736.25	0.3989449785	-1.317144032	
736.875	-0.9214041518	0.02981848806	
737.5	0.4395626548	0.5041787308	
738.125	0.4636733556	-0.4458163302	
738.75	-0.4067152534	-0.3594791706	
739.375	-0.4316462064	0.3455943197	
740.0	0.2617409422	0.7770502959	
740.625	1.290436165	0.3916564116	
741.25	1.745549406	-0.5473506785	
741.875	1.092508968	-1.410421281	
742.5	0.3545729133	-2.015620517	
743.125	0.118565825	-2.012328383	
743.75	0.3211187103	-1.621756549	
744.375	0.2626955734	-0.8803783723	
745.0	0.09180350406	-0.8288498914	
745.625	0.4685258055	-0.6902128312	
746.25	0.5210149961	-0.4358162377	
746.875	0.2510298269	-0.5130719256	
747.5	0.1160399846	-0.5672402596	
748.125	-0.3441992672	-0.4891196257	
748.75	-0.6073318237	-0.2413950872	
749.375	-0.4292038328	0.1514974298	
750.0	0.001135825026	0.3756783002	
