# GHz S RI R 50 
!freq	ReS11	ImS11	
500.0	0.006672822399	-0.001579749105	
500.625	-0.05525668798	0.02953262176	
501.25	-0.04313940769	0.1119101816	
501.875	0.01722132506	0.00572657781	
502.5	0.07537011852	-0.1297531718	
503.125	-0.01480452538	0.006824700792	
503.75	0.0107314577	-0.06687743025	
504.375	0.007582516561	0.05325999687	
505.0	0.05696452553	-0.00155164628	
505.625	-0.03255673698	-0.01177082548	
506.25	-0.04179274299	0.1204638778	
506.875	0.2403310701	0.1498701096	
507.5	0.1730684604	-0.1729291202	
508.125	0.2089476935	-0.4023092689	
508.75	0.2033113756	-0.3015553928	
509.375	-0.1500564687	-0.1067736434	
510.0	-0.08963532532	0.1010516579	
510.625	0.02031260273	0.06741507327	
511.25	0.01641715597	-0.0188879267	
511.875	-0.01256918871	0.003160792764	
512.5	0.008826805355	0.0009291669055	
513.125	-0.02236395385	-0.001698882979	
513.75	0.01064588155	0.006312399024	
514.375	0.0714564243	-0.04684761309	
515.0	0.003179747874	-0.2684316257	
515.625	-0.1213445606	-0.08781804201	
516.25	-0.1202358595	0.1194044371	
516.875	0.05289855421	0.05968229586	
517.5	0.07334682887	-0.07516932648	
518.125	-0.03568496216	-0.09303749114	
518.75	-0.08561634098	-0.00781605043	
519.375	0.01194471332	-0.01892952375	
520.0	-0.05729094218	-0.04995119472	
520.625	-0.1482677428	-0.01720326874	
521.25	-0.04250460419	0.1275121007	
521.875	0.2884581336	0.03876309761	
522.5	-0.02587716588	-0.3983892726	
523.125	-0.2385836307	-0.2710866924	
523.75	-0.2604656751	-0.0111013057	
524.375	-0.2207963466	0.2731358444	
525.0	0.1564987838	0.3441021191	
525.625	0.1500372767	-0.1303321733	
526.25	-0.07552267443	-0.1640399023	
526.875	-0.1304923123	0.0112802109	
527.5	0.04481498069	0.08471761396	
528.125	0.1482023638	-0.05573573136	
528.75	-0.002241913824	-0.07115564809	
529.375	0.0123760479	0.02718951312	
530.0	0.1112251219	-0.08299724144	
530.625	0.09206995737	-0.1840427917	
531.25	-0.1104453963	-0.08706623913	
531.875	0.03713495819	0.1769722826	
532.5	0.1770488535	0.1118983819	
533.125	0.06832507137	-0.09430830713	
533.75	-0.08873169966	-0.02643570191	
534.375	-0.09160614703	0.1018907553	
535.0	0.02706752735	0.01205281089	
535.625	0.04105818176	-0.06509128413	
536.25	-0.04534278949	-0.03784314799	
536.875	0.01803357523	0.0274692607	
537.5	0.0414321418	-0.06325690503	
538.125	-0.1955418598	-0.08812151236	
538.75	-0.314678202	0.1391122747	
539.375	-0.1152506938	0.2071794067	
540.0	0.2146007465	0.1215401555	
540.625	0.2571325266	0.09577666165	
541.25	0.1560797136	-0.1080043277	
541.875	-0.0183087354	-0.2640628945	
542.5	-0.2347962964	-0.2832770393	
543.125	-0.3283185816	0.03095095002	
543.75	0.0962261482	0.2037487069	
544.375	0.2444091195	-0.1728746408	
545.0	0.02732453969	-0.2650701195	
545.625	-0.1203106996	0.02285452451	
546.25	0.1053472411	0.3075905094	
546.875	0.3710945728	0.252642908	
547.5	0.3167414516	-0.1067819346	
548.125	-0.07153132609	-0.2277469338	
548.75	-0.3691328777	0.08522730653	
549.375	-0.1882291993	0.3103470216	
550.0	0.1852087484	0.0673838996	
550.625	-0.01564694695	-0.2873684419	
551.25	-0.3686395977	-0.006854358371	
551.875	-0.008084350803	0.2693915371	
552.5	0.2108748068	-0.05814590059	
553.125	0.0245325545	-0.2499797795	
553.75	0.02214662847	0.05753913827	
554.375	0.0592615993	-0.08012160523	
555.0	-0.1269642727	-0.1027745241	
555.625	-0.1818032543	0.1272363844	
556.25	0.1310079171	0.1320512357	
556.875	0.2076728538	-0.2384724292	
557.5	0.03929548186	-0.3405047114	
558.125	-0.06629610237	-0.193833214	
558.75	-0.1126963047	0.05338750551	
559.375	0.02916465889	0.2417896586	
560.0	0.2525344825	0.1227583115	
560.625	0.2875003784	-0.0407643771	
561.25	0.09016274943	-0.3349266086	
561.875	-0.1974869174	-0.3008677303	
562.5	-0.1555418049	0.2003903317	
563.125	0.06175302708	0.2387443412	
563.75	0.2760455374	0.1494955187	
564.375	0.07456062569	-0.265871907	
565.0	-0.2159640938	-0.1764924185	
565.625	-0.3106090118	0.2115989137	
566.25	-0.2509058777	0.2500890223	
566.875	-0.04899615422	0.1499854001	
567.5	0.2030925193	-0.04454218405	
568.125	0.2934717969	-0.2629609517	
568.75	0.03335268427	-0.3453176612	
569.375	-0.2488025876	-0.05616811763	
570.0	-0.173654263	0.3246871801	
570.625	0.178289048	0.319373879	
571.25	0.1938526735	-0.109720884	
571.875	-0.3210016486	0.007545134679	
572.5	-0.0492274455	0.4140406499	
573.125	0.3278024091	-0.1589636483	
573.75	-0.02271745969	-0.3755783443	
574.375	-0.3355801639	0.2886987203	
575.0	-0.3255714193	0.07847063045	
575.625	0.1787709461	0.1521992194	
576.25	0.3308176338	-0.1664441131	
576.875	0.1994078121	-0.3845192465	
577.5	-0.1645110897	-0.3450353091	
578.125	-0.3348008393	0.04788173597	
578.75	-0.2417524009	0.3439749408	
579.375	0.3800336699	0.1714876728	
580.0	0.2689111719	-0.1618640287	
580.625	-0.3028554019	-0.07851059643	
581.25	-0.3987562089	0.1745845836	
581.875	-0.3573759477	0.2885840078	
582.5	0.1342513452	0.3894389809	
583.125	0.395274334	-0.1701172509	
583.75	-0.138254702	-0.3878149889	
584.375	-0.2731401493	0.07775858116	
585.0	0.09480343777	0.3136130425	
585.625	0.06930281503	0.4510190948	
586.25	0.3793858398	0.1276226735	
586.875	0.2007689711	-0.2915648809	
587.5	-0.07943752806	-0.4856080388	
588.125	-0.3549611891	-0.3793037852	
588.75	-0.2716295782	0.09524137318	
589.375	0.3039780572	0.08945530672	
590.0	0.2719832067	-0.4641118441	
590.625	-0.2545999773	-0.4123206628	
591.25	-0.2772544485	0.2780334948	
591.875	0.36855883	0.4027317993	
592.5	0.5372692035	-0.1503769509	
593.125	-0.02572140348	-0.3265872324	
593.75	-0.2178117613	0.2786481698	
594.375	0.3683889636	0.3702928522	
595.0	0.3556945823	-0.2161086535	
595.625	-0.2454422514	-0.2587260894	
596.25	-0.5487647773	0.1014944221	
596.875	0.01696994442	0.5764396395	
597.5	0.3255098454	0.04442460724	
598.125	0.1151977869	-0.2414241377	
598.75	0.0386633691	-0.4963342427	
599.375	-0.4653431037	-0.09618879966	
600.0	-0.237861772	0.2526564276	
600.625	-0.114121546	0.4379127354	
601.25	0.3565029052	0.4281901482	
601.875	0.4940657085	-0.03090418217	
602.5	-0.2079677516	-0.2854452909	
603.125	-0.4104722598	-0.1743309271	
603.75	-0.3802405049	0.3605414783	
604.375	0.2477692747	0.413593087	
605.0	0.4522039479	-0.1933424757	
605.625	0.08222938563	-0.5640763535	
606.25	-0.312640124	-0.4694401487	
606.875	-0.475956712	-0.04783953804	
607.5	-0.3146413718	0.4547626942	
608.125	0.0009540640627	0.6803114045	
608.75	0.3347327093	0.5294692938	
609.375	0.4952844057	-0.1306759201	
610.0	-0.07724821409	-0.6503636397	
610.625	-0.7515251149	-0.232132422	
611.25	-0.4385852017	0.5132728161	
611.875	0.3754786785	0.455877169	
612.5	0.6178043774	-0.3721506102	
613.125	-0.1128873517	-0.745854337	
613.75	-0.6315618356	-0.1463481568	
614.375	-0.4415855572	0.5584755378	
615.0	0.2469719691	0.758870081	
615.625	0.6450011841	0.03903784008	
616.25	0.1366653288	-0.5524276891	
616.875	-0.6458925253	-0.293606449	
617.5	-0.4819857422	0.5123919045	
618.125	0.2448666792	0.4870946654	
618.75	0.420574755	-0.4417797971	
619.375	0.4508838609	-0.7068891313	
620.0	-0.1278470754	-0.7535641324	
620.625	-0.4590924479	-0.2323731481	
621.25	-0.4556362985	0.2498490235	
621.875	0.03730366747	0.6786342467	
622.5	0.5444723151	0.341321417	
623.125	0.3318336027	-0.4692503688	
623.75	-0.3728490976	-0.5405441322	
624.375	-0.7205235687	0.1346692955	
625.0	-0.1861756634	0.5563719146	
625.625	0.2631088965	0.414005803	
626.25	0.5527506158	-0.002221940771	
626.875	0.3323980772	-0.4382173695	
627.5	-0.2190732353	-0.4342617999	
628.125	-0.5498741742	-0.1533737522	
628.75	-0.564090738	0.4091673234	
629.375	-0.2789461599	0.596826849	
630.0	0.2001413605	0.3832599088	
630.625	0.3751060412	-0.1422677026	
631.25	0.1605116189	-0.5571136261	
631.875	-0.2865501813	-0.5024316922	
632.5	-0.4652078352	0.09554907085	
633.125	0.006746477737	0.5559000209	
633.75	0.6071982134	0.3018780265	
634.375	0.4698401954	-0.3443946441	
635.0	-0.1308640881	-0.3838483112	
635.625	-0.4608813616	0.1019312245	
636.25	-0.1967132117	0.5328206434	
636.875	0.2932277563	0.4147925405	
637.5	0.5813313043	-0.02836809167	
638.125	0.5633112742	-0.4830454851	
638.75	0.1719456149	-0.6838697024	
639.375	-0.3016988912	-0.3586677625	
640.0	-0.4174908308	0.2680373535	
640.625	-0.02941984048	0.7114658792	
641.25	0.5060943843	0.4345184881	
641.875	0.445527642	-0.2609460861	
642.5	-0.09893065792	-0.7666351921	
643.125	-0.7905839624	-0.609269882	
643.75	-0.838848778	0.09285705807	
644.375	-0.1788545543	0.5429823266	
645.0	0.5470742747	0.3296683916	
645.625	0.6347085685	-0.2888583714	
646.25	-0.004071953362	-0.5798734752	
646.875	-0.6885774577	-0.1437231718	
647.5	-0.8954409094	0.2629488034	
648.125	-0.4926443694	0.6828895436	
648.75	0.2465665585	0.4850033366	
649.375	0.5426160332	-0.3331398123	
650.0	0.03696329236	-0.8404793096	
650.625	-0.4540185706	-0.4221660194	
651.25	-0.2998296424	0.3235857911	
651.875	0.2200080962	0.7975179031	
652.5	0.7744148008	0.7033924243	
653.125	0.8298769834	0.01467778239	
653.75	0.1235486748	-0.524189841	
654.375	-0.5376020101	0.05901027201	
655.0	0.1505127155	0.580084439	
655.625	0.5078423884	-0.2640909247	
656.25	-0.5086029416	-0.3829971169	
656.875	-0.5308867633	0.6032271323	
657.5	0.2094350222	0.827795613	
658.125	0.5573248247	0.4318581995	
658.75	0.6111957927	0.03054264492	
659.375	0.549683965	-0.3936963817	
660.0	0.3172658833	-0.5677738027	
660.625	-0.1397237553	-0.4586294451	
661.25	-0.6358516658	0.07877136575	
661.875	-0.4105481382	0.7579688028	
662.5	0.286012314	0.7336007286	
663.125	0.4227782942	0.1193436887	
663.75	-0.003434259671	-0.3653445769	
664.375	-0.4635280435	-0.4274967471	
665.0	-0.5649809604	-0.137321006	
665.625	-0.2686082602	0.2564834216	
666.25	0.2752877574	0.4176624009	
666.875	0.6020343837	0.1791739098	
667.5	0.367466934	-0.3338411634	
668.125	-0.1309385825	-0.2817782767	
668.75	-0.4035212583	0.08078974273	
669.375	-0.2174116504	0.4161009321	
670.0	0.2007354288	0.29348821	
670.625	0.4394628942	-0.1109126779	
671.25	0.4055378254	-0.534102391	
671.875	0.09790997938	-0.6438393886	
672.5	-0.3160512875	-0.2598710252	
673.125	-0.1974558578	0.2857430917	
673.75	0.3388226137	0.4520085625	
674.375	0.5864579239	0.06128328821	
675.0	0.2279616094	-0.4242577013	
675.625	-0.4352217777	-0.4214058081	
676.25	-0.7621369371	0.06333140864	
676.875	-0.4993414063	0.5408163268	
677.5	0.1311268822	0.5718651473	
678.125	0.5760597099	0.2220160722	
678.75	0.6223363514	-0.2020083646	
679.375	0.2129464061	-0.544752352	
680.0	0.03905790334	-0.7409460784	
680.625	-0.05380985158	-1.005462874	
681.25	-0.02925708517	-1.001492953	
681.875	-0.2424574882	-0.7046362579	
682.5	-0.5285711085	-0.1772810947	
683.125	-0.3078326866	0.589067337	
683.75	0.5781304359	0.4163635148	
684.375	0.3597070938	-0.5392892445	
685.0	-0.7272468486	-0.1347840093	
685.625	-0.3685351835	0.9277659032	
686.25	0.536041367	0.8966174029	
686.875	0.7803475331	0.2662403575	
687.5	0.4339520602	-0.3393453624	
688.125	-0.3311730578	-0.5078279826	
688.75	-0.6722672337	0.2365260163	
689.375	0.363896535	0.5658605172	
690.0	0.632685063	-0.5679493717	
690.625	-0.4303225952	-1.103073492	
691.25	-1.040260719	-0.5299028147	
691.875	-0.7390438079	0.2678567251	
692.5	-0.10283019	0.5653651694	
693.125	0.6303651304	0.4908548064	
693.75	0.6664177761	-0.1995710443	
694.375	-0.2668645209	-0.3178385041	
695.0	-0.1599208166	0.6934018726	
695.625	1.004980837	0.2219905302	
696.25	0.414109287	-0.8417485193	
696.875	-0.4249911208	-0.4156946267	
697.5	-0.2399441356	0.3119246506	
698.125	0.2750454739	0.5411504392	
698.75	0.5620805066	0.2246150553	
699.375	0.635447519	-0.316133689	
700.0	0.6887259457	-0.8069111608	
700.625	0.5846613901	-1.037739543	
701.25	0.4822626298	-0.8745819826	
701.875	-0.05599523993	-0.6349133047	
702.5	-0.4814083835	-0.3718625957	
703.125	-0.5538423207	-0.1999162878	
703.75	-0.4954015047	0.0181269957	
704.375	-0.6323661642	0.2806241514	
705.0	-0.8675861293	0.3813198842	
705.625	-0.435254245	0.8690501554	
706.25	0.4371048888	0.5465834828	
706.875	0.322915855	-0.3090749091	
707.5	-0.1880960607	-0.475627594	
708.125	-0.564243299	0.1790276359	
708.75	0.04189872264	0.5125888767	
709.375	0.6208518158	0.1969063654	
710.0	0.8518856991	-0.2803292188	
710.625	0.6972906943	-0.6026125184	
711.25	0.2635689368	-0.6451114275	
711.875	-0.3581042779	-0.337201721	
712.5	-0.4940017428	0.3440117068	
713.125	0.09018472299	0.6269825229	
713.75	0.5041538626	-0.0564770928	
714.375	-0.1802643974	-0.6168244626	
715.0	-0.8983779758	0.1084612913	
715.625	-0.00856947395	0.9027523399	
716.25	0.6127033821	0.08320386712	
716.875	-0.07218187271	-0.41885671	
717.5	-0.3801483259	0.4904973791	
718.125	0.6753790877	0.6241974113	
718.75	0.8009274374	-0.5758486375	
719.375	-0.5538053865	-1.662871258	
720.0	-1.143549852	-2.995092166	
720.625	1.009604137	-5.189464328	
721.25	4.143578903	-3.52106959	
721.875	5.575718805	-2.310855493	
722.5	8.878829416	-3.609371176	
723.125	11.0836309	-5.061666561	
723.75	4.645782534	-7.157293511	
724.375	-0.5825099046	-9.11415112	
725.0	-4.366176309	-7.366846345	
725.625	-3.394120043	-5.769268584	
726.25	-1.834352382	-3.764813282	
726.875	-2.23448281	-1.74219885	
727.5	-2.983674654	-0.5574528918	
728.125	-1.972164068	2.82450341	
728.75	2.127901247	2.30307486	
729.375	1.192329809	-3.302610255	
730.0	-4.905893605	-0.8853114192	
730.625	-1.810298885	5.427880159	
731.25	2.689415782	3.694256683	
731.875	2.98541705	1.00428149	
732.5	1.991825527	-1.426546944	
733.125	1.124449525	-1.776107632	
733.75	0.2527863764	-1.512705555	
734.375	-1.195914426	-0.4700130148	
735.0	-0.6006609319	1.53114399	
735.625	1.501418107	0.622276507	
736.25	-0.03242139716	-1.201255613	
736.875	-0.6844925358	0.3219717577	
737.5	0.5287557867	0.1660705184	
738.125	0.1294389078	-0.5252269497	
738.75	-0.4127779418	-0.03874085426	
739.375	-0.1226912778	0.5217782888	
740.0	0.5611998497	0.6084997488	
740.625	1.275691953	-0.001150004708	
741.25	1.277867808	-0.8686235872	
741.875	0.4776182998	-1.364840578	
742.5	-0.3775368968	-1.531602293	
743.125	-0.5076495154	-1.47329876	
743.75	-0.2373261317	-1.126592476	
744.375	-0.2123715836	-0.6266822616	
745.0	-0.2967560061	-0.7271640075	
745.625	0.2096051497	-0.7339645109	
746.25	0.3397983549	-0.462532199	
746.875	0.09614875067	-0.4260061525	
747.5	-0.04407048525	-0.3972930135	
748.125	-0.3392060618	-0.2548249092	
748.75	-0.405268044	-0.04752635841	
749.375	-0.153476535	0.1123901386	
750.0	0.1910146014	0.1535781942	
